<Qucs Dataset 1.0.1>
<indep time 512>
0.000000000000e+00
6.600000000000e-07
7.285608042001e-07
8.656824126003e-07
1.139925629401e-06
1.688412063002e-06
2.785384930203e-06
4.979330664607e-06
8.128909346715e-06
1.374328593377e-05
2.424274614661e-05
4.524166657229e-05
8.723950742363e-05
1.532395074236e-04
2.192395074236e-04
2.852395074236e-04
3.512395074236e-04
4.172395074236e-04
4.832395074236e-04
5.492395074236e-04
6.152395074236e-04
6.812395074236e-04
7.472395074236e-04
8.132395074236e-04
8.792395074236e-04
9.452395074236e-04
1.011239507424e-03
1.077239507424e-03
1.143239507424e-03
1.209239507424e-03
1.275239507424e-03
1.341239507424e-03
1.407239507424e-03
1.473239507424e-03
1.539239507424e-03
1.605239507424e-03
1.671239507424e-03
1.737239507424e-03
1.803239507424e-03
1.869239507424e-03
1.935239507424e-03
2.001239507424e-03
2.067239507424e-03
2.133239507424e-03
2.199239507424e-03
2.265239507424e-03
2.331239507424e-03
2.397239507424e-03
2.463239507424e-03
2.529239507424e-03
2.595239507424e-03
2.661239507424e-03
2.727239507424e-03
2.793239507424e-03
2.859239507424e-03
2.925239507424e-03
2.991239507424e-03
3.057239507424e-03
3.123239507424e-03
3.189239507424e-03
3.255239507424e-03
3.321239507424e-03
3.387239507424e-03
3.453239507424e-03
3.519239507424e-03
3.585239507424e-03
3.651239507424e-03
3.717239507424e-03
3.783239507424e-03
3.849239507424e-03
3.915239507424e-03
3.981239507424e-03
4.047239507424e-03
4.113239507424e-03
4.179239507424e-03
4.245239507424e-03
4.311239507424e-03
4.377239507424e-03
4.443239507424e-03
4.509239507424e-03
4.575239507424e-03
4.641239507424e-03
4.707239507424e-03
4.773239507424e-03
4.839239507424e-03
4.905239507424e-03
4.971239507424e-03
5.037239507424e-03
5.103239507424e-03
5.169239507424e-03
5.235239507424e-03
5.301239507424e-03
5.367239507424e-03
5.433239507424e-03
5.499239507424e-03
5.565239507424e-03
5.631239507424e-03
5.697239507424e-03
5.763239507424e-03
5.829239507424e-03
5.895239507424e-03
5.961239507424e-03
6.027239507424e-03
6.093239507424e-03
6.159239507424e-03
6.225239507424e-03
6.291239507424e-03
6.357239507424e-03
6.423239507424e-03
6.489239507424e-03
6.555239507424e-03
6.621239507424e-03
6.687239507424e-03
6.753239507424e-03
6.819239507424e-03
6.885239507424e-03
6.951239507424e-03
7.017239507424e-03
7.083239507424e-03
7.149239507424e-03
7.215239507424e-03
7.281239507424e-03
7.347239507424e-03
7.413239507424e-03
7.479239507424e-03
7.545239507424e-03
7.611239507424e-03
7.677239507424e-03
7.743239507424e-03
7.809239507424e-03
7.875239507424e-03
7.941239507424e-03
8.007239507424e-03
8.073239507424e-03
8.139239507424e-03
8.205239507424e-03
8.271239507424e-03
8.337239507424e-03
8.403239507424e-03
8.469239507424e-03
8.535239507424e-03
8.601239507424e-03
8.667239507424e-03
8.733239507424e-03
8.799239507424e-03
8.865239507424e-03
8.931239507424e-03
8.997239507424e-03
9.063239507424e-03
9.129239507424e-03
9.195239507424e-03
9.261239507424e-03
9.327239507424e-03
9.393239507424e-03
9.459239507424e-03
9.525239507424e-03
9.591239507424e-03
9.657239507424e-03
9.723239507424e-03
9.789239507424e-03
9.855239507424e-03
9.921239507424e-03
9.987239507424e-03
1.005323950742e-02
1.011923950742e-02
1.018523950742e-02
1.025123950742e-02
1.031723950742e-02
1.038323950742e-02
1.044923950742e-02
1.051523950742e-02
1.058123950742e-02
1.064723950742e-02
1.071323950742e-02
1.077923950742e-02
1.084523950742e-02
1.091123950742e-02
1.097723950742e-02
1.104323950742e-02
1.110923950742e-02
1.117523950742e-02
1.124123950742e-02
1.130723950742e-02
1.137323950742e-02
1.143923950742e-02
1.150523950742e-02
1.157123950742e-02
1.163723950742e-02
1.170323950742e-02
1.176923950742e-02
1.183523950742e-02
1.190123950742e-02
1.196723950742e-02
1.203323950742e-02
1.209923950742e-02
1.216523950742e-02
1.223123950742e-02
1.229723950742e-02
1.236323950742e-02
1.242923950742e-02
1.249523950742e-02
1.256123950742e-02
1.262723950742e-02
1.269323950742e-02
1.275923950742e-02
1.282523950742e-02
1.289123950742e-02
1.295723950742e-02
1.302323950742e-02
1.308923950742e-02
1.315523950742e-02
1.322123950742e-02
1.328723950742e-02
1.335323950742e-02
1.341923950742e-02
1.348523950742e-02
1.355123950742e-02
1.361723950742e-02
1.368323950742e-02
1.374923950742e-02
1.381523950742e-02
1.388123950742e-02
1.394723950742e-02
1.401323950742e-02
1.407923950742e-02
1.414523950742e-02
1.421123950742e-02
1.427723950742e-02
1.434323950742e-02
1.440923950742e-02
1.447523950742e-02
1.454123950742e-02
1.460723950742e-02
1.467323950742e-02
1.473923950742e-02
1.480523950742e-02
1.487123950742e-02
1.493723950742e-02
1.500323950742e-02
1.506923950742e-02
1.513523950742e-02
1.520123950742e-02
1.526723950742e-02
1.533323950742e-02
1.539923950742e-02
1.546523950742e-02
1.553123950742e-02
1.559723950742e-02
1.566323950742e-02
1.572923950742e-02
1.579523950742e-02
1.586123950742e-02
1.592723950742e-02
1.599323950742e-02
1.605923950742e-02
1.612523950742e-02
1.619123950742e-02
1.625723950742e-02
1.632323950742e-02
1.638923950742e-02
1.645523950742e-02
1.652123950742e-02
1.658723950742e-02
1.665323950742e-02
1.671923950742e-02
1.678523950742e-02
1.685123950742e-02
1.691723950742e-02
1.698323950742e-02
1.704923950742e-02
1.711523950742e-02
1.718123950742e-02
1.724723950742e-02
1.731323950742e-02
1.737923950742e-02
1.744523950742e-02
1.751123950742e-02
1.757723950742e-02
1.764323950742e-02
1.770923950742e-02
1.777523950742e-02
1.784123950742e-02
1.790723950742e-02
1.797323950742e-02
1.803923950742e-02
1.810523950742e-02
1.817123950742e-02
1.823723950742e-02
1.830323950742e-02
1.836923950742e-02
1.843523950742e-02
1.850123950742e-02
1.856723950742e-02
1.863323950742e-02
1.869923950742e-02
1.876523950742e-02
1.883123950742e-02
1.889723950742e-02
1.896323950742e-02
1.902923950742e-02
1.909523950742e-02
1.916123950742e-02
1.922723950742e-02
1.929323950742e-02
1.935923950742e-02
1.942523950742e-02
1.949123950742e-02
1.955723950742e-02
1.962323950742e-02
1.968923950742e-02
1.975523950742e-02
1.982123950742e-02
1.988723950742e-02
1.995323950742e-02
2.001923950742e-02
2.008523950742e-02
2.015123950742e-02
2.021723950742e-02
2.028323950742e-02
2.034923950742e-02
2.041523950742e-02
2.048123950742e-02
2.054723950742e-02
2.061323950742e-02
2.067923950742e-02
2.074523950742e-02
2.081123950742e-02
2.087723950742e-02
2.094323950742e-02
2.100923950742e-02
2.107523950742e-02
2.114123950742e-02
2.120723950742e-02
2.127323950742e-02
2.133923950742e-02
2.140523950742e-02
2.147123950742e-02
2.153723950742e-02
2.160323950742e-02
2.166923950742e-02
2.173523950742e-02
2.180123950742e-02
2.186723950742e-02
2.193323950742e-02
2.199923950742e-02
2.206523950742e-02
2.213123950742e-02
2.219723950742e-02
2.226323950742e-02
2.232923950742e-02
2.239523950742e-02
2.246123950742e-02
2.252723950742e-02
2.259323950742e-02
2.265923950742e-02
2.272523950742e-02
2.279123950742e-02
2.285723950742e-02
2.292323950742e-02
2.298923950742e-02
2.305523950742e-02
2.312123950742e-02
2.318723950742e-02
2.325323950742e-02
2.331923950742e-02
2.338523950742e-02
2.345123950742e-02
2.351723950742e-02
2.358323950742e-02
2.364923950742e-02
2.371523950742e-02
2.378123950742e-02
2.384723950742e-02
2.391323950742e-02
2.397923950742e-02
2.404523950742e-02
2.411123950742e-02
2.417723950742e-02
2.424323950742e-02
2.430923950742e-02
2.437523950742e-02
2.444123950742e-02
2.450723950742e-02
2.457323950742e-02
2.463923950742e-02
2.470523950742e-02
2.477123950742e-02
2.483723950742e-02
2.490323950742e-02
2.496923950742e-02
2.503523950742e-02
2.510123950742e-02
2.516723950742e-02
2.523323950742e-02
2.529923950742e-02
2.536523950742e-02
2.543123950742e-02
2.549723950742e-02
2.556323950742e-02
2.562923950742e-02
2.569523950742e-02
2.576123950742e-02
2.582723950742e-02
2.589323950742e-02
2.595923950742e-02
2.602523950742e-02
2.609123950742e-02
2.615723950742e-02
2.622323950742e-02
2.628923950742e-02
2.635523950742e-02
2.642123950742e-02
2.648723950742e-02
2.655323950742e-02
2.661923950742e-02
2.668523950742e-02
2.675123950742e-02
2.681723950742e-02
2.688323950742e-02
2.694923950742e-02
2.701523950742e-02
2.708123950742e-02
2.714723950742e-02
2.721323950742e-02
2.727923950742e-02
2.734523950742e-02
2.741123950742e-02
2.747723950742e-02
2.754323950742e-02
2.760923950742e-02
2.767523950742e-02
2.774123950742e-02
2.780723950742e-02
2.787323950742e-02
2.793923950742e-02
2.800523950742e-02
2.807123950742e-02
2.813723950742e-02
2.820323950742e-02
2.826923950742e-02
2.833523950742e-02
2.840123950742e-02
2.846723950742e-02
2.853323950742e-02
2.859923950742e-02
2.866523950742e-02
2.873123950742e-02
2.879723950742e-02
2.886323950742e-02
2.892923950742e-02
2.899523950742e-02
2.906123950742e-02
2.912723950742e-02
2.919323950742e-02
2.925923950742e-02
2.932523950742e-02
2.939123950742e-02
2.945723950742e-02
2.952323950742e-02
2.958923950742e-02
2.965523950742e-02
2.972123950742e-02
2.978723950742e-02
2.985323950742e-02
2.991923950742e-02
2.998523950742e-02
3.005123950742e-02
3.011723950742e-02
3.018323950742e-02
3.024923950742e-02
3.031523950742e-02
3.038123950742e-02
3.044723950742e-02
3.051323950742e-02
3.057923950742e-02
3.064523950742e-02
3.071123950742e-02
3.077723950742e-02
3.084323950742e-02
3.090923950742e-02
3.097523950742e-02
3.104123950742e-02
3.110723950742e-02
3.117323950742e-02
3.123923950742e-02
3.130523950742e-02
3.137123950742e-02
3.143723950742e-02
3.150323950742e-02
3.156923950742e-02
3.163523950742e-02
3.170123950742e-02
3.176723950742e-02
3.183323950742e-02
3.189923950742e-02
3.196523950742e-02
3.203123950742e-02
3.209723950742e-02
3.216323950742e-02
3.222923950742e-02
3.229523950742e-02
3.236123950742e-02
3.242723950742e-02
3.249323950742e-02
3.255923950742e-02
3.262523950742e-02
3.269123950742e-02
3.275723950742e-02
3.282323950742e-02
3.288923950742e-02
3.295523950742e-02
3.300000000000e-02
</indep>
<dep tran.v(vin) time>
2.500000000000e+00
2.577412795566e+00
2.585454437069e+00
2.601537719899e+00
2.633704284702e+00
2.698037409677e+00
2.826703631474e+00
3.084035885443e+00
3.453455483273e+00
4.111971871976e+00
5.343443401669e+00
7.806233520163e+00
1.273066182533e+01
2.046379018865e+01
2.818579801707e+01
3.589190497992e+01
4.357734058999e+01
5.123734715671e+01
5.886718273147e+01
6.646212404306e+01
7.401746942169e+01
8.152854170953e+01
8.899069115613e+01
9.639929829687e+01
1.037497768126e+02
1.110375763690e+02
1.182581854332e+02
1.254071340668e+02
1.324799966930e+02
1.394723948363e+02
1.463799998329e+02
1.531985355106e+02
1.599237808357e+02
1.665515725260e+02
1.730778076284e+02
1.794984460589e+02
1.858095131029e+02
1.920071018768e+02
1.980873757458e+02
2.040465706992e+02
2.098809976805e+02
2.155870448714e+02
2.211611799273e+02
2.265999521641e+02
2.318999946946e+02
2.370580265126e+02
2.420708545239e+02
2.469353755232e+02
2.516485781151e+02
2.562075445783e+02
2.606094526718e+02
2.648515773820e+02
2.689312926095e+02
2.728460727953e+02
2.765934944835e+02
2.801712378224e+02
2.835770879998e+02
2.868089366144e+02
2.898647829815e+02
2.927427353706e+02
2.954410121773e+02
2.979579430256e+02
3.002919698025e+02
3.024416476222e+02
3.044056457204e+02
3.061827482786e+02
3.077718551766e+02
3.091719826732e+02
3.103822640155e+02
3.114019499755e+02
3.122304093137e+02
3.128671291701e+02
3.133117153813e+02
3.135638927251e+02
3.136235050903e+02
3.134905155738e+02
3.131650065031e+02
3.126471793854e+02
3.119373547833e+02
3.110359721154e+02
3.099435893854e+02
3.086608828358e+02
3.071886465298e+02
3.055277918593e+02
3.036793469812e+02
3.016444561804e+02
2.994243791618e+02
2.970204902703e+02
2.944342776401e+02
2.916673422735e+02
2.887213970496e+02
2.855982656640e+02
2.822998815000e+02
2.788282864316e+02
2.751856295596e+02
2.713741658809e+02
2.673962548929e+02
2.632543591324e+02
2.589510426519e+02
2.544889694314e+02
2.498709017299e+02
2.450996983753e+02
2.401783129944e+02
2.351097921847e+02
2.298972736282e+02
2.245439841494e+02
2.190532377170e+02
2.134284333931e+02
2.076730532287e+02
2.017906601081e+02
1.957848955433e+02
1.896594774197e+02
1.834181976947e+02
1.770649200501e+02
1.706035775003e+02
1.640381699575e+02
1.573727617559e+02
1.506114791350e+02
1.437585076861e+02
1.368180897602e+02
1.297945218427e+02
1.226921518931e+02
1.155153766535e+02
1.082686389269e+02
1.009564248265e+02
9.358326099908e+01
8.615371182255e+01
7.867237658021e+01
7.114388661370e+01
6.357290245592e+01
5.596411094593e+01
4.832222232755e+01
4.065196733342e+01
3.295809425651e+01
2.524536601060e+01
1.751855718183e+01
9.782451072949e+00
2.041836742229e+00
-5.698493961236e+00
-1.343374936393e+01
-2.115914093423e+01
-2.886988624672e+01
-3.656121194281e+01
-4.422835668568e+01
-5.186657410779e+01
-5.947113574913e+01
-6.703733398442e+01
-7.456048493734e+01
-8.203593138010e+01
-8.945904561655e+01
-9.682523234691e+01
-1.041299315126e+02
-1.113686211189e+02
-1.185368200348e+02
-1.256300907664e+02
-1.326440422047e+02
-1.395743323431e+02
-1.464166709661e+02
-1.531668223047e+02
-1.598206076587e+02
-1.663739079835e+02
-1.728226664402e+02
-1.791628909066e+02
-1.853906564490e+02
-1.915021077515e+02
-1.974934615030e+02
-2.033610087391e+02
-2.091011171382e+02
-2.147102332701e+02
-2.201848847954e+02
-2.255216826160e+02
-2.307173229719e+02
-2.357685894875e+02
-2.406723551619e+02
-2.454255843053e+02
-2.500253344177e+02
-2.544687580109e+02
-2.587531043710e+02
-2.628757212613e+02
-2.668340565642e+02
-2.706256598612e+02
-2.742481839495e+02
-2.776993862953e+02
-2.809771304223e+02
-2.840793872335e+02
-2.870042362683e+02
-2.897498668906e+02
-2.923145794100e+02
-2.946967861339e+02
-2.968950123508e+02
-2.989078972423e+02
-3.007341947265e+02
-3.023727742287e+02
-3.038226213818e+02
-3.050828386536e+02
-3.061526459033e+02
-3.070313808635e+02
-3.077184995510e+02
-3.082135766030e+02
-3.085163055406e+02
-3.086264989586e+02
-3.085440886415e+02
-3.082691256057e+02
-3.078017800678e+02
-3.071423413392e+02
-3.062912176476e+02
-3.052489358833e+02
-3.040161412738e+02
-3.025935969841e+02
-3.009821836443e+02
-2.991828988043e+02
-2.971968563164e+02
-2.950252856459e+02
-2.926695311097e+02
-2.901310510442e+02
-2.874114169028e+02
-2.845123122825e+02
-2.814355318822e+02
-2.781829803916e+02
-2.747566713117e+02
-2.711587257089e+02
-2.673913709015e+02
-2.634569390811e+02
-2.593578658688e+02
-2.550966888074e+02
-2.506760457906e+02
-2.460986734299e+02
-2.413674053605e+02
-2.364851704873e+02
-2.314549911714e+02
-2.262799813596e+02
-2.209633446562e+02
-2.155083723402e+02
-2.099184413275e+02
-2.041970120807e+02
-1.983476264667e+02
-1.923739055640e+02
-1.862795474215e+02
-1.800683247686e+02
-1.737440826803e+02
-1.673107361965e+02
-1.607722678983e+02
-1.541327254430e+02
-1.473962190581e+02
-1.405669189967e+02
-1.336490529564e+02
-1.266469034615e+02
-1.195648052124e+02
-1.124071424020e+02
-1.051783460016e+02
-9.788289101799e+01
-9.052529372306e+01
-8.311010885816e+01
-7.564192681434e+01
-6.812537079073e+01
-6.056509393250e+01
-5.296577645032e+01
-4.533212272308e+01
-3.766885838560e+01
-2.998072740325e+01
-2.227248913515e+01
-1.454891538791e+01
-6.814787461607e+00
9.251068101022e-01
8.665976023874e+00
1.640302817283e+01
2.413147361305e+01
3.184652802864e+01
3.954341539342e+01
4.721737092762e+01
5.486364404745e+01
6.247750130601e+01
7.005422932353e+01
7.758913770520e+01
8.507756194478e+01
9.251486631214e+01
9.989644672310e+01
1.072177335895e+02
1.144741946481e+02
1.216613377663e+02
1.287747137228e+02
1.358099189624e+02
1.427625983212e+02
1.496284477237e+02
1.564032168464e+02
1.630827117494e+02
1.696627974727e+02
1.761394005955e+02
1.825085117586e+02
1.887661881456e+02
1.949085559245e+02
2.009318126451e+02
2.068322295935e+02
2.126061540999e+02
2.182500118000e+02
2.237603088480e+02
2.291336340788e+02
2.343666611204e+02
2.394561504527e+02
2.443989514129e+02
2.491920041462e+02
2.538323414998e+02
2.583170908599e+02
2.626434759296e+02
2.668088184481e+02
2.708105398485e+02
2.746461628538e+02
2.783133130108e+02
2.818097201599e+02
2.851332198404e+02
2.882817546304e+02
2.912533754206e+02
2.940462426209e+02
2.966586272988e+02
2.990889122504e+02
3.013355930008e+02
3.033972787361e+02
3.052726931638e+02
3.069606753035e+02
3.084601802049e+02
3.097702795954e+02
3.108901624542e+02
3.118191355148e+02
3.125566236936e+02
3.131021704467e+02
3.134554380517e+02
3.136162078173e+02
3.135843802186e+02
3.133599749585e+02
3.129431309557e+02
3.123341062587e+02
3.115332778860e+02
3.105411415925e+02
3.093583115631e+02
3.079855200320e+02
3.064236168297e+02
3.046735688567e+02
3.027364594852e+02
3.006134878883e+02
2.983059682973e+02
2.958153291889e+02
2.931431124001e+02
2.902909721744e+02
2.872606741371e+02
2.840540942028e+02
2.806732174138e+02
2.771201367114e+02
2.733970516403e+02
2.695062669866e+02
2.654501913517e+02
2.612313356605e+02
2.568523116076e+02
2.523158300400e+02
2.476246992796e+02
2.427818233840e+02
2.377902003491e+02
2.326529202533e+02
2.273731633442e+02
2.219541980703e+02
2.163993790573e+02
2.107121450314e+02
2.048960166909e+02
1.989545945265e+02
1.928915565923e+02
1.867106562290e+02
1.804157197403e+02
1.740106440244e+02
1.674993941615e+02
1.608860009591e+02
1.541745584568e+02
1.473692213922e+02
1.404742026282e+02
1.334937705456e+02
1.264322464005e+02
1.192940016495e+02
1.120834552428e+02
1.048050708897e+02
9.746335429449e+01
9.006285036740e+01
8.260814041128e+01
7.510383928530e+01
6.755459254821e+01
5.996507358245e+01
5.233998070110e+01
4.468403423939e+01
3.700197363251e+01
2.929855448173e+01
2.157854561035e+01
1.384672611159e+01
6.107882390093e+00
-1.633194801158e+00
-9.371713326531e+00
-1.710288263435e+01
-2.482191672248e+01
-3.252403710114e+01
-4.020447575103e+01
-4.785847807499e+01
-5.548130584131e+01
-6.306824011701e+01
-7.061458418908e+01
-7.811566647196e+01
-8.556684339955e+01
-9.296350229979e+01
-1.003010642502e+02
-1.075749869123e+02
-1.147807673439e+02
-1.219139447863e+02
-1.289701034259e+02
-1.359448751278e+02
-1.428339421401e+02
-1.496330397662e+02
-1.563379590058e+02
-1.629445491597e+02
-1.694487203997e+02
-1.758464463002e+02
-1.821337663310e+02
-1.883067883090e+02
-1.943616908075e+02
-2.002947255220e+02
-2.061022195908e+02
-2.117805778683e+02
-2.173262851507e+02
-2.227359083525e+02
-2.280060986310e+02
-2.331335934603e+02
-2.381152186501e+02
-2.429478903115e+02
-2.476286167653e+02
-2.521545003947e+02
-2.565227394387e+02
-2.607306297266e+02
-2.647755663521e+02
-2.686550452857e+02
-2.723666649252e+02
-2.759081275820e+02
-2.792772409035e+02
-2.824719192308e+02
-2.854901848891e+02
-2.883301694128e+02
-2.909901147012e+02
-2.934683741079e+02
-2.957634134594e+02
-2.978738120050e+02
-2.997982632966e+02
-3.015355759973e+02
-3.030846746187e+02
-3.044446001870e+02
-3.056145108364e+02
-3.065936823303e+02
-3.073815085101e+02
-3.079775016696e+02
-3.083812928575e+02
-3.085926321059e+02
-3.086113885846e+02
-3.084375506822e+02
-3.080712260137e+02
-3.075126413534e+02
-3.067621424947e+02
-3.058201940360e+02
-3.046873790931e+02
-3.033643989384e+02
-3.018520725664e+02
-3.001513361871e+02
-2.982632426460e+02
-2.961889607727e+02
-2.939297746575e+02
-2.914870828556e+02
-2.888623975225e+02
-2.860573434769e+02
-2.830736571954e+02
-2.799131857374e+02
-2.765778856017e+02
-2.730698215153e+02
-2.693911651550e+02
-2.655441938034e+02
-2.615312889391e+02
-2.573549347620e+02
-2.530177166559e+02
-2.485223195880e+02
-2.438715264465e+02
-2.390682163178e+02
-2.341153627048e+02
-2.290160316853e+02
-2.237733800146e+02
-2.183906531710e+02
-2.128711833467e+02
-2.072183873849e+02
-2.014357646651e+02
-1.955268949359e+02
-1.894954361000e+02
-1.833451219488e+02
-1.770797598516e+02
-1.707032283985e+02
-1.642194749993e+02
-1.576325134397e+02
-1.509464213968e+02
-1.441653379147e+02
-1.372934608423e+02
-1.303350442344e+02
-1.232943957184e+02
-1.161758738276e+02
-1.089838853029e+02
-1.017228823652e+02
-9.439735995875e+01
-8.701185296882e+01
-7.957093341430e+01
-7.207920761739e+01
-6.454131335204e+01
-5.696191697291e+01
-4.934571052668e+01
-4.169740884739e+01
-3.649455295916e+01
</dep>
<dep tran.v(vin_out) time>
1.354736842105e+00
1.354999673939e+00
1.355026976910e+00
1.355081582854e+00
1.355190794737e+00
1.355409218488e+00
1.355846065894e+00
1.356719760064e+00
1.357974013052e+00
1.360209807128e+00
