<Qucs Dataset 0.0.20>
<indep time 201>
  +0.00000000000000000000e+00
  +2.50000000000000011980e-05
  +5.00000000000000023961e-05
  +7.50000000000000069823e-05
  +1.00000000000000004792e-04
  +1.25000000000000002602e-04
  +1.50000000000000013965e-04
  +1.74999999999999998222e-04
  +2.00000000000000009584e-04
  +2.25000000000000020947e-04
  +2.50000000000000005204e-04
  +2.75000000000000016567e-04
  +3.00000000000000027929e-04
  +3.25000000000000039291e-04
  +3.49999999999999996444e-04
  +3.75000000000000007806e-04
  +4.00000000000000019169e-04
  +4.25000000000000030531e-04
  +4.50000000000000041894e-04
  +4.74999999999999999046e-04
  +5.00000000000000010408e-04
  +5.25000000000000075981e-04
  +5.50000000000000033133e-04
  +5.74999999999999990286e-04
  +6.00000000000000055858e-04
  +6.25000000000000013010e-04
  +6.50000000000000078583e-04
  +6.75000000000000035735e-04
  +6.99999999999999992888e-04
  +7.25000000000000058460e-04
  +7.50000000000000015613e-04
  +7.75000000000000081185e-04
  +8.00000000000000038337e-04
  +8.24999999999999995490e-04
  +8.50000000000000061062e-04
  +8.75000000000000018215e-04
  +9.00000000000000083787e-04
  +9.25000000000000040939e-04
  +9.49999999999999998092e-04
  +9.75000000000000063664e-04
  +1.00000000000000002082e-03
  +1.02500000000000008639e-03
  +1.05000000000000015196e-03
  +1.07500000000000000069e-03
  +1.10000000000000006627e-03
  +1.12500000000000013184e-03
  +1.14999999999999998057e-03
  +1.17500000000000004614e-03
  +1.20000000000000011172e-03
  +1.22499999999999996045e-03
  +1.25000000000000002602e-03
  +1.27500000000000009159e-03
  +1.30000000000000015717e-03
  +1.32500000000000000590e-03
  +1.35000000000000007147e-03
  +1.37500000000000013704e-03
  +1.39999999999999998578e-03
  +1.42500000000000005135e-03
  +1.45000000000000011692e-03
  +1.47499999999999996565e-03
  +1.50000000000000003123e-03
  +1.52500000000000009680e-03
  +1.55000000000000016237e-03
  +1.57500000000000001110e-03
  +1.60000000000000007667e-03
  +1.62500000000000014225e-03
  +1.64999999999999999098e-03
  +1.67500000000000005655e-03
  +1.70000000000000012212e-03
  +1.72500000000000018770e-03
  +1.75000000000000003643e-03
  +1.77500000000000010200e-03
  +1.80000000000000016757e-03
  +1.82500000000000001631e-03
  +1.85000000000000008188e-03
  +1.87500000000000014745e-03
  +1.89999999999999999618e-03
  +1.92500000000000006176e-03
  +1.95000000000000012733e-03
  +1.97500000000000019290e-03
  +2.00000000000000004163e-03
  +2.02499999999999989037e-03
  +2.05000000000000017278e-03
  +2.07500000000000002151e-03
  +2.10000000000000030392e-03
  +2.12500000000000015266e-03
  +2.15000000000000000139e-03
  +2.17500000000000028380e-03
  +2.20000000000000013253e-03
  +2.22499999999999998126e-03
  +2.25000000000000026368e-03
  +2.27500000000000011241e-03
  +2.29999999999999996114e-03
  +2.32500000000000024356e-03
  +2.35000000000000009229e-03
  +2.37499999999999994102e-03
  +2.40000000000000022343e-03
  +2.42500000000000007216e-03
  +2.44999999999999992090e-03
  +2.47500000000000020331e-03
  +2.50000000000000005204e-03
  +2.52500000000000033445e-03
  +2.55000000000000018319e-03
  +2.57500000000000003192e-03
  +2.60000000000000031433e-03
  +2.62500000000000016306e-03
  +2.65000000000000001180e-03
  +2.67500000000000029421e-03
  +2.70000000000000014294e-03
  +2.72499999999999999167e-03
  +2.75000000000000027409e-03
  +2.77500000000000012282e-03
  +2.79999999999999997155e-03
  +2.82500000000000025396e-03
  +2.85000000000000010270e-03
  +2.87499999999999995143e-03
  +2.90000000000000023384e-03
  +2.92500000000000008257e-03
  +2.94999999999999993130e-03
  +2.97500000000000021372e-03
  +3.00000000000000006245e-03
  +3.02500000000000034486e-03
  +3.05000000000000019360e-03
  +3.07500000000000004233e-03
  +3.10000000000000032474e-03
  +3.12500000000000017347e-03
  +3.15000000000000002220e-03
  +3.17500000000000030462e-03
  +3.20000000000000015335e-03
  +3.22500000000000000208e-03
  +3.25000000000000028449e-03
  +3.27500000000000013323e-03
  +3.29999999999999998196e-03
  +3.32500000000000026437e-03
  +3.35000000000000011310e-03
  +3.37499999999999996184e-03
  +3.40000000000000024425e-03
  +3.42500000000000009298e-03
  +3.45000000000000037539e-03
  +3.47500000000000022413e-03
  +3.50000000000000007286e-03
  +3.52500000000000035527e-03
  +3.55000000000000020400e-03
  +3.57500000000000005274e-03
  +3.60000000000000033515e-03
  +3.62500000000000018388e-03
  +3.65000000000000003261e-03
  +3.67500000000000031503e-03
  +3.70000000000000016376e-03
  +3.72500000000000001249e-03
  +3.75000000000000029490e-03
  +3.77500000000000014364e-03
  +3.79999999999999999237e-03
  +3.82500000000000027478e-03
  +3.85000000000000012351e-03
  +3.87499999999999997224e-03
  +3.90000000000000025466e-03
  +3.92500000000000053707e-03
  +3.95000000000000038580e-03
  +3.97500000000000023453e-03
  +4.00000000000000008327e-03
  +4.02499999999999993200e-03
  +4.04999999999999978073e-03
  +4.07500000000000049682e-03
  +4.10000000000000034556e-03
  +4.12500000000000019429e-03
  +4.15000000000000004302e-03
  +4.17499999999999989175e-03
  +4.20000000000000060785e-03
  +4.22500000000000045658e-03
  +4.25000000000000030531e-03
  +4.27500000000000015404e-03
  +4.30000000000000000278e-03
  +4.32499999999999985151e-03
  +4.35000000000000056760e-03
  +4.37500000000000041633e-03
  +4.40000000000000026507e-03
  +4.42500000000000011380e-03
  +4.44999999999999996253e-03
  +4.47499999999999981126e-03
  +4.50000000000000052736e-03
  +4.52500000000000037609e-03
  +4.55000000000000022482e-03
  +4.57500000000000007355e-03
  +4.59999999999999992228e-03
  +4.62500000000000063838e-03
  +4.65000000000000048711e-03
  +4.67500000000000033584e-03
  +4.70000000000000018457e-03
  +4.72500000000000003331e-03
  +4.74999999999999988204e-03
  +4.77500000000000059813e-03
  +4.80000000000000044686e-03
  +4.82500000000000029560e-03
  +4.85000000000000014433e-03
  +4.87499999999999999306e-03
  +4.89999999999999984179e-03
  +4.92500000000000055789e-03
  +4.95000000000000040662e-03
  +4.97500000000000025535e-03
  +5.00000000000000010408e-03
</indep>
<indep Vs 101>
  +0.00000000000000000000e+00
  +5.00000000000000027756e-02
  +1.00000000000000005551e-01
  +1.50000000000000022204e-01
  +2.00000000000000011102e-01
  +2.50000000000000000000e-01
  +3.00000000000000044409e-01
  +3.50000000000000033307e-01
  +4.00000000000000022204e-01
  +4.50000000000000011102e-01
  +5.00000000000000000000e-01
  +5.50000000000000044409e-01
  +6.00000000000000088818e-01
  +6.50000000000000022204e-01
  +7.00000000000000066613e-01
  +7.50000000000000000000e-01
  +8.00000000000000044409e-01
  +8.50000000000000088818e-01
  +9.00000000000000022204e-01
  +9.50000000000000066613e-01
  +1.00000000000000000000e+00
  +1.05000000000000004441e+00
  +1.10000000000000008882e+00
  +1.15000000000000013323e+00
  +1.20000000000000017764e+00
  +1.25000000000000000000e+00
  +1.30000000000000004441e+00
  +1.35000000000000008882e+00
  +1.40000000000000013323e+00
  +1.45000000000000017764e+00
  +1.50000000000000000000e+00
  +1.55000000000000004441e+00
  +1.60000000000000008882e+00
  +1.65000000000000013323e+00
  +1.70000000000000017764e+00
  +1.75000000000000000000e+00
  +1.80000000000000004441e+00
  +1.85000000000000008882e+00
  +1.90000000000000013323e+00
  +1.95000000000000017764e+00
  +2.00000000000000000000e+00
  +2.05000000000000026645e+00
  +2.10000000000000008882e+00
  +2.14999999999999991118e+00
  +2.20000000000000017764e+00
  +2.25000000000000000000e+00
  +2.30000000000000026645e+00
  +2.35000000000000008882e+00
  +2.40000000000000035527e+00
  +2.45000000000000017764e+00
  +2.50000000000000000000e+00
  +2.55000000000000026645e+00
  +2.60000000000000008882e+00
  +2.65000000000000035527e+00
  +2.70000000000000017764e+00
  +2.75000000000000000000e+00
  +2.80000000000000026645e+00
  +2.85000000000000008882e+00
  +2.90000000000000035527e+00
  +2.95000000000000017764e+00
  +3.00000000000000000000e+00
  +3.05000000000000026645e+00
  +3.10000000000000008882e+00
  +3.15000000000000035527e+00
  +3.20000000000000017764e+00
  +3.25000000000000000000e+00
  +3.30000000000000026645e+00
  +3.35000000000000008882e+00
  +3.40000000000000035527e+00
  +3.45000000000000017764e+00
  +3.50000000000000000000e+00
  +3.55000000000000026645e+00
  +3.60000000000000008882e+00
  +3.65000000000000035527e+00
  +3.70000000000000017764e+00
  +3.75000000000000000000e+00
  +3.80000000000000026645e+00
  +3.85000000000000008882e+00
  +3.90000000000000035527e+00
  +3.95000000000000017764e+00
  +4.00000000000000000000e+00
  +4.04999999999999982236e+00
  +4.10000000000000053291e+00
  +4.15000000000000035527e+00
  +4.20000000000000017764e+00
  +4.25000000000000000000e+00
  +4.29999999999999982236e+00
  +4.35000000000000053291e+00
  +4.40000000000000035527e+00
  +4.45000000000000017764e+00
  +4.50000000000000000000e+00
  +4.54999999999999982236e+00
  +4.60000000000000053291e+00
  +4.65000000000000035527e+00
  +4.70000000000000017764e+00
  +4.75000000000000000000e+00
  +4.80000000000000071054e+00
  +4.85000000000000053291e+00
  +4.90000000000000035527e+00
  +4.95000000000000017764e+00
  +5.00000000000000000000e+00
</indep>
<dep V2.It time>
  +0.00000000000000000000e+00
  -5.30086599042201619264e-04
  -4.14410922262991655071e-04
  -3.49364423273841552195e-04
  -3.12798689614583573255e-04
  -2.92241850520083177537e-04
  -2.80706625888433724137e-04
  -2.74233772416607320902e-04
  -2.70601608032675295182e-04
  -2.68563462388049436092e-04
  -2.67419781312631856668e-04
  -2.66778018342592702916e-04
  -2.66417900720148552798e-04
  -2.66215825019229025174e-04
  -2.66102432654187644450e-04
  -2.66038803883428861662e-04
  -2.66003099358994889168e-04
  -2.65983064191728990275e-04
  -2.65971821697010826421e-04
  -2.65965513105432117651e-04
  -2.65961973352712446016e-04
  +2.63786858891949327691e-04
  +1.48223296806623854776e-04
  +8.32971330422349696271e-05
  +4.68105387111164878582e-05
  +2.63061458947680838066e-05
  +1.47832802375436881857e-05
  +8.30776866577082670885e-06
  +4.66872162976946112006e-06
  +2.62368423257663541177e-06
  +1.47443336702239347282e-06
  +8.28588184049121889311e-07
  +4.65642187773003457064e-07
  +2.61677213370900374745e-07
  +1.47054897076766740783e-07
  +8.26405267607582539684e-08
  +4.64415452940027706893e-08
  +2.60769088336443272246e-08
  +1.46420209901385245564e-08
  +8.20252242991573199943e-09
  +4.59129105965848477355e-09
  -5.30082793354071752853e-04
  -4.14392607994532459047e-04
  -3.49303102968463914397e-04
  -3.12747884461670507678e-04
  -2.92225703087788471219e-04
  -2.80704504595588784106e-04
  -2.74214173428390898136e-04
  -2.70577810624725312045e-04
  -2.68542946217294273975e-04
  -2.67404260838470834386e-04
  -2.66767066346685038491e-04
  -2.66410500057248991745e-04
  -2.66210969897460753703e-04
  -2.66099315246293263888e-04
  -2.66036834661199678587e-04
  -2.66001871285533768915e-04
  -2.65982306205659192310e-04
  -2.65971357824869227438e-04
  -2.65965231244109370171e-04
  -2.65961803118383696611e-04
  +2.63750324505896316558e-04
  +1.48212085570509469233e-04
  +8.32865695434122034393e-05
  +4.68022067134977494407e-05
  +2.63001173569915078058e-05
  +1.47791358904460365874e-05
  +8.30501456337435351026e-06
  +4.66693502307180196832e-06
  +2.62254597428723013831e-06
  +1.47371826546734476083e-06
  +8.28143928558715383555e-07
  +4.65368708849635789395e-07
  +2.61510140578207078659e-07
  +1.46953485107074035225e-07
  +8.25793093046681793751e-08
  +4.64047676056634174542e-08
  +2.60550145357252825113e-08
  +1.45807196645022189786e-08
  +8.18810621820841848750e-09
  +4.59043413619033084389e-09
  -5.30086526183792859993e-04
  -4.14405068197988882793e-04
  -3.49340227909477815671e-04
  -3.12713770419489867601e-04
  -2.92136130058663677587e-04
  -2.80660297760962872127e-04
  -2.74190813816447176605e-04
  -2.70565144104685712835e-04
  -2.68536084971089130096e-04
  -2.67400548285473007269e-04
  -2.66765059874598305795e-04
  -2.66409417009447863859e-04
  -2.66210386082419250050e-04
  -2.66099000999810695635e-04
  -2.66036665779787731209e-04
  -2.66001780680595503303e-04
  -2.65982257686288379572e-04
  -2.65971331895175776457e-04
  -2.65965217417572612202e-04
  -2.65961795763353700105e-04
  +2.63754412962181211157e-04
  +1.48216353076198031078e-04
  +8.32899327540658613016e-05
  +4.68046389902085862135e-05
  +2.63017889265475180349e-05
  +1.47802464811528071892e-05
  +8.30573489330723176258e-06
  +4.66739388993744667256e-06
  +2.62283422281867000000e-06
  +1.47389732313356408569e-06
  +8.28254145931393798646e-07
  +4.65436037833401263629e-07
  +2.61551006268064916623e-07
  +1.46978152354254248514e-07
  +8.25281524314159078946e-08
  +4.63314315857070056021e-08
  +2.60105368839436898331e-08
  +1.46023553737913561492e-08
  +8.19778474446320872901e-09
  +4.60224895205420583776e-09
  -5.30085988879207704177e-04
  -4.14405763457293600891e-04
  -3.49342585572798357101e-04
  -3.12718154426739377693e-04
  -2.92143286222894043788e-04
  -2.80658441372179726092e-04
  -2.74205063820358850048e-04
  -2.70584561394501669530e-04
  -2.68553371105327174859e-04
  -2.67413823742681307661e-04
  -2.66774509839580226036e-04
  -2.66415839125140401725e-04
  -2.66214616094055461174e-04
  -2.66101725058883408458e-04
  -2.66038390430866256327e-04
  -2.66002858157644058845e-04
  -2.65982923684515433060e-04
  -2.65971739958204673147e-04
  -2.65965465614589424790e-04
  -2.65961945795240950301e-04
  +2.63798610410061239520e-04
  +1.48271669760085151321e-04
  +8.33381495803560569781e-05
  +4.68413634696072977200e-05
  +2.63278383638249873085e-05
  +1.47979269083711334227e-05
  +8.31738017225042936486e-06
  +4.67489894754183639951e-06
  +2.62759182785011460772e-06
  +1.47687445039106882323e-06
  +8.30097779685423817346e-07
  +4.66567976483179930885e-07
  +2.62241005827171073939e-07
  +1.47396196489122511989e-07
  +8.28142522102992661042e-08
  +4.64528908632031210064e-08
  +2.60566061439892216166e-08
  +1.46158120867523100518e-08
  +8.19838016412332274442e-09
  +4.59867962974240798677e-09
  -5.30083792185023186701e-04
  -4.14408662074394068282e-04
  -3.49361986240385709399e-04
  -3.12806420859338047726e-04
  -2.92233553093421355787e-04
  -2.80706393474957239132e-04
  -2.74229186401524877795e-04
  -2.70596535784965556981e-04
  -2.68559214706237951893e-04
  -2.67416611792842707097e-04
  -2.66775798996406112319e-04
  -2.66416408139562299606e-04
  -2.66214848825046298663e-04
  -2.66101807114344629784e-04
  -2.66038409258537015580e-04
  -2.66002853461512825395e-04
  -2.65982912492123096775e-04
  -2.65971728879506059268e-04
  -2.65965456707440643224e-04
  -2.65961936199250281558e-04
  +2.63775118618471545937e-04
  +1.48214478447525658221e-04
  +8.32919851141612782195e-05
  +4.68075376773252035999e-05
  +2.63043986814725307436e-05
  +1.47822642319647725009e-05
  +8.30717852438633964473e-06
  +4.66837921127143608318e-06
  +2.62348574744771707799e-06
  +1.47431842092939135887e-06
  +8.28521675182078782748e-07
  +4.65603736955144037184e-07
  +2.61655001142792337525e-07
  +1.47042075028771361511e-07
  +8.26331303981744038341e-08
  +4.64372815608432728482e-08
  +2.60746017069674256598e-08
  +1.46400487277200545361e-08
  +8.20005224228270424405e-09
  +4.58956107163963041001e-09
</dep>
<dep Vout.Vt time>
  +0.00000000000000000000e+00
  +1.39541112651302912084e+00
  +2.18200572861165698058e+00
  +2.62432192173787770528e+00
  +2.87296891062083181723e+00
  +3.01275541646343469893e+00
  +3.09119494395865102021e+00
  +3.13521034756707051017e+00
  +3.15990906537780835706e+00
  +3.17376845576126420667e+00
  +3.18154548707410356201e+00
  +3.18590947527036982834e+00
  +3.18835827510299019139e+00
  +3.18973238986924290117e+00
  +3.19050345795152434647e+00
  +3.19093613359268379881e+00
  +3.19117892435883510061e+00
  +3.19131516349624311246e+00
  +3.19139161246032676544e+00
  +3.19143451088306173702e+00
  +3.19145858290658424039e+00
  +1.79375064046525567463e+00
  +1.00791841828504225020e+00
  +5.66420504687197845506e-01
  +3.18311663235592123833e-01
  +1.78881792084422980293e-01
  +1.00526305615297087415e-01
  +5.64928269272416266888e-02
  +3.17473070824323411188e-02
  +1.78410527815211217284e-02
  +1.00261468957522758422e-02
  +5.63439965153402898962e-03
  +3.16636687685642372742e-03
  +1.77940505092212281762e-03
  +9.99973300122013967345e-04
  +5.61955581973156131220e-04
  +3.15802507999218872239e-04
  +1.77322980068781441750e-04
  +9.95657427329419759303e-05
  +5.57771525234269783373e-05
  +3.12207792056776991998e-05
  +1.39543700519231173018e+00
  +2.18213026563717926720e+00
  +2.62473889981444541419e+00
  +2.87331438566064090168e+00
  +3.01286521900303849719e+00
  +3.09120936874999641120e+00
  +3.13534362068694205661e+00
  +3.16007088775186817386e+00
  +3.17390796572239919371e+00
  +3.18165102629839857684e+00
  +3.18598394884254210169e+00
  +3.18840859961070721695e+00
  +3.18976540469726721483e+00
  +3.19052465632520609873e+00
  +3.19094952430384237729e+00
  +3.19118727525837053705e+00
  +3.19132031780151770306e+00
  +3.19139476679088929245e+00
  +3.19143642754005663065e+00
  +3.19145974050002001476e+00
  +1.79350220664009518678e+00
  +1.00784218187946450485e+00
  +5.66348672895203075761e-01
  +3.18255005651784717013e-01
  +1.78840798027542269288e-01
  +1.00498124055033055679e-01
  +5.64740990309456139529e-02
  +3.17351581568882587514e-02
  +1.78333126251531658146e-02
  +1.00212842051779459085e-02
  +5.63137871419926508421e-03
  +3.16450722017752377954e-03
  +1.77826895593180826956e-03
  +9.99283698728103486966e-04
  +5.61539303271743660620e-04
  +3.15552419718511279346e-04
  +1.77174098842931935106e-04
  +9.91488937186150981863e-05
  +5.56791222838172545294e-05
  +3.12149521260942513796e-05
  +1.39541162195020884695e+00
  +2.18204553625367569936e+00
  +2.62448645021555115875e+00
  +2.87354636114746897491e+00
  +3.01347431560108702797e+00
  +3.09150997522545267771e+00
  +3.13550246604815940898e+00
  +3.16015702008813725854e+00
  +3.17395462219659396652e+00
  +3.18167627165878386108e+00
  +3.18599759285273176346e+00
  +3.18841596433575480418e+00
  +3.18976937463954923757e+00
  +3.19052679320128751428e+00
  +3.19095067269744347982e+00
  +3.19118789137195069117e+00
  +3.19132064773323920193e+00
  +3.19139494311280502714e+00
  +3.19143652156050627866e+00
  +3.19145979051422390427e+00
  +1.79353000814283247699e+00
  +1.00787120091814674794e+00
  +5.66371542727647891979e-01
  +3.18271545133418432005e-01
  +1.78852164700523147411e-01
  +1.00505676071839092356e-01
  +5.64789972744891843881e-02
  +3.17382784515746405041e-02
  +1.78352727151669561423e-02
  +1.00225017973082364264e-02
  +5.63212819233347827125e-03
  +3.16496505726712902551e-03
  +1.77854684262284171679e-03
  +9.99451436008928989843e-04
  +5.61191436533628202482e-04
  +3.15053734782807658317e-04
  +1.76871650810817097324e-04
  +9.92960165417812294381e-05
  +5.57449362623498281453e-05
  +3.12952928739686049510e-05
  +1.39541527562138800711e+00
  +2.18204080849040371604e+00
  +2.62447041810497116998e+00
  +2.87351654989817228980e+00
  +3.01342565368432069306e+00
  +3.09152259866917811237e+00
  +3.13540556602155984223e+00
  +3.16002498251738872526e+00
  +3.17383707648377555444e+00
  +3.18158599854976742449e+00
  +3.18593333309085480209e+00
  +3.18837229394904531077e+00
  +3.18974061056042312856e+00
  +3.19050826959959321627e+00
  +3.19093894507010977790e+00
  +3.19118056452802045797e+00
  +3.19131611894529543250e+00
  +3.19139216828420835270e+00
  +3.19143483382079207189e+00
  +3.19145877029739066799e+00
  +1.79383055078841646690e+00
  +1.00824735436857904070e+00
  +5.66699417146421247082e-01
  +3.18521271593329657890e-01
  +1.79029300874009922317e-01
  +1.00625902976923711774e-01
  +5.65581851713029201689e-02
  +3.17893128432844909725e-02
  +1.78676244293807795493e-02
  +1.00427462626592692990e-02
  +5.64466490186088260678e-03
  +3.17266224008562382902e-03
  +1.78323883962476330278e-03
  +1.00229413612603311667e-03
  +5.63136915030035029202e-04
  +3.15879657869781249949e-04
  +1.77184921779126731663e-04
  +9.93875221899157137518e-05
