<Qucs Dataset 0.0.20>
<indep time 101>
  +0.00000000000000000000e+00
  +3.40000000000000024425e-04
  +6.80000000000000048850e-04
  +1.02000000000000007327e-03
  +1.36000000000000009770e-03
  +1.70000000000000012212e-03
  +2.04000000000000014655e-03
  +2.38000000000000017097e-03
  +2.72000000000000019540e-03
  +3.06000000000000021982e-03
  +3.40000000000000024425e-03
  +3.74000000000000026867e-03
  +4.08000000000000029310e-03
  +4.42000000000000031752e-03
  +4.76000000000000034195e-03
  +5.10000000000000036637e-03
  +5.44000000000000039080e-03
  +5.78000000000000041522e-03
  +6.12000000000000043965e-03
  +6.46000000000000046407e-03
  +6.80000000000000048850e-03
  +7.14000000000000051292e-03
  +7.48000000000000053735e-03
  +7.82000000000000056177e-03
  +8.16000000000000058620e-03
  +8.50000000000000061062e-03
  +8.84000000000000063505e-03
  +9.18000000000000065947e-03
  +9.52000000000000068390e-03
  +9.86000000000000070832e-03
  +1.02000000000000007327e-02
  +1.05400000000000007572e-02
  +1.08800000000000007816e-02
  +1.12200000000000008060e-02
  +1.15600000000000008304e-02
  +1.19000000000000008549e-02
  +1.22400000000000008793e-02
  +1.25800000000000009037e-02
  +1.29200000000000009281e-02
  +1.32600000000000009526e-02
  +1.36000000000000009770e-02
  +1.39400000000000010014e-02
  +1.42800000000000010258e-02
  +1.46200000000000010503e-02
  +1.49600000000000010747e-02
  +1.53000000000000010991e-02
  +1.56400000000000011235e-02
  +1.59800000000000011480e-02
  +1.63200000000000011724e-02
  +1.66600000000000011968e-02
  +1.70000000000000012212e-02
  +1.73400000000000012457e-02
  +1.76800000000000012701e-02
  +1.80200000000000012945e-02
  +1.83600000000000013189e-02
  +1.87000000000000013434e-02
  +1.90400000000000013678e-02
  +1.93800000000000013922e-02
  +1.97200000000000014166e-02
  +2.00600000000000014411e-02
  +2.04000000000000014655e-02
  +2.07400000000000014899e-02
  +2.10800000000000015143e-02
  +2.14200000000000015388e-02
  +2.17600000000000015632e-02
  +2.21000000000000015876e-02
  +2.24400000000000016120e-02
  +2.27800000000000016365e-02
  +2.31200000000000016609e-02
  +2.34600000000000016853e-02
  +2.38000000000000017097e-02
  +2.41400000000000017342e-02
  +2.44800000000000017586e-02
  +2.48200000000000017830e-02
  +2.51600000000000018074e-02
  +2.55000000000000018319e-02
  +2.58400000000000018563e-02
  +2.61800000000000018807e-02
  +2.65200000000000019051e-02
  +2.68600000000000019296e-02
  +2.72000000000000019540e-02
  +2.75400000000000019784e-02
  +2.78800000000000020028e-02
  +2.82200000000000020273e-02
  +2.85600000000000020517e-02
  +2.89000000000000020761e-02
  +2.92400000000000021005e-02
  +2.95800000000000021250e-02
  +2.99200000000000021494e-02
  +3.02600000000000021738e-02
  +3.06000000000000021982e-02
  +3.09400000000000022227e-02
  +3.12800000000000022471e-02
  +3.16200000000000022715e-02
  +3.19600000000000022959e-02
  +3.23000000000000023204e-02
  +3.26400000000000023448e-02
  +3.29800000000000023692e-02
  +3.33200000000000023936e-02
  +3.36600000000000024181e-02
  +3.40000000000000024425e-02
</indep>
<dep VR1.Vt time>
  +0.00000000000000000000e+00
  +2.30087324355522504504e+01
  +4.56399638885413025946e+01
  +6.75223869810379682121e+01
  +8.82969799267957284883e+01
  +1.07622896950353393208e+02
  +1.25183060494928440676e+02
  +1.40689363468545451497e+02
  +1.53887396175891581152e+02
  +1.64560620381804170620e+02
  +1.72533922023127644252e+02
  +1.77676484280104432401e+02
  +1.79903933869228353615e+02
  +1.79179725343640967594e+02
  +1.75515740689051654044e+02
  +1.68972094377697345635e+02
  +1.59656147078793537730e+02
  +1.47720744207388435143e+02
  +1.33361708211496619469e+02
  +1.16814625741199336062e+02
  +9.83509824121684630427e+01
  +7.82737085799951302079e+01
  +5.69122092051683523550e+01
  +3.46169593529969290557e+01
  +1.17537539993344939404e+01
  -1.13022935152764016919e+01
  -3.41729059165368624917e+01
  -5.64828483375336816152e+01
  -7.78660847435377263537e+01
  -9.79717834328782970488e+01
  -1.16470073082499979478e+02
  -1.33057454899584314489e+02
  -1.47461782082840215935e+02
  -1.59446724896152346673e+02
  -1.68815648096763993635e+02
  -1.75414837101583884760e+02
  -1.79136019960368003012e+02
  -1.79918143758123221687e+02
  -1.77748376301552156065e+02
  -1.72662316655013768241e+02
  -1.64743411071765166298e+02
  -1.54121583903218407841e+02
  -1.40971105948687323917e+02
  -1.25507735219305914143e+02
  -1.07985177027195845767e+02
  -8.86909214786925019780e+01
  -6.79415266652851812523e+01
  -4.60774249402811619802e+01
  -2.34573374938707281956e+01
  -4.52388865860654798556e-01
  +2.25599820415747522873e+01
  +4.52022145499846033090e+01
  +6.71028207886967322793e+01
  +8.79024806431849867749e+01
  +1.07259937068801548321e+02
  +1.24857595046304894026e+02
  +1.40406732317920415198e+02
  +1.53652236412133987642e+02
  +1.64376790237527472982e+02
  +1.72404437573219269098e+02
  +1.77603469957416251646e+02
  +1.79888587609310860671e+02
  +1.79222298930385932181e+02
  +1.75615535623709860147e+02
  +1.69127473339047639911e+02
  +1.59864560786438005380e+02
  +1.47978773247431206528e+02
  +1.33665119138378798880e+02
  +1.17158440535234788626e+02
  +9.87295601532007509604e+01
  +7.86808379971680267317e+01
  +5.73412105843584214426e+01
  +3.50607941299277641178e+01
  +1.22051402402943356407e+01
  -1.08507616397896029525e+01
  -3.37286366254304965651e+01
  -5.60531306935311022244e+01
  -7.74579690625695889139e+01
  -9.75919656105571675653e+01
  -1.16124784735518446155e+02
  -1.32752361124471235598e+02
  -1.47201888509532011540e+02
  -1.59236295561338607740e+02
  -1.68658135484447285535e+02
  -1.75312825498668416913e+02
  -1.79091183056634008608e+02
  -1.79931217186238029626e+02
  -1.77819145567650394923e+02
  -1.72789620657867317277e+02
  -1.64925161152805117126e+02
  -1.54354798114857430846e+02
  -1.41251957978707338270e+02
  -1.25831617168615451874e+02
  -1.08346775010971242637e+02
  -8.90843028105265375416e+01
  -6.83602371939243766974e+01
  -4.65145949419624642474e+01
  -2.39057943828964347688e+01
  -9.04774874187363242761e-01
  +2.21110891464895438219e+01
  +4.47641796896738384248e+01
</dep>
<dep V1.It time>
  +0.00000000000000000000e+00
  -2.30087324355522504504e+00
  -4.56399638885413061473e+00
  -6.75223869810379717649e+00
  -8.82969799267957355937e+00
  -1.07622896950353403867e+01
  -1.25183060494928444228e+01
  -1.40689363468545458602e+01
  -1.53887396175891595362e+01
  -1.64560620381804163515e+01
  -1.72533922023127637146e+01
  -1.77676484280104425295e+01
  -1.79903933869228360720e+01
  -1.79179725343640967594e+01
  -1.75515740689051646939e+01
  -1.68972094377697352741e+01
  -1.59656147078793537730e+01
  -1.47720744207388445801e+01
  -1.33361708211496630128e+01
  -1.16814625741199336062e+01
  -9.83509824121684772535e+00
  -7.82737085799951337606e+00
  -5.69122092051683559077e+00
  -3.46169593529969299439e+00
  -1.17537539993344952727e+00
  +1.13022935152764025801e+00
  +3.41729059165368642681e+00
  +5.64828483375336887207e+00
  +7.78660847435377334591e+00
  +9.79717834328783077069e+00
  +1.16470073082499983030e+01
  +1.33057454899584328700e+01
  +1.47461782082840215935e+01
  +1.59446724896152360884e+01
  +1.68815648096764014952e+01
  +1.75414837101583884760e+01
  +1.79136019960367995907e+01
  +1.79918143758123214582e+01
  +1.77748376301552148959e+01
  +1.72662316655013761135e+01
  +1.64743411071765173403e+01
  +1.54121583903218422051e+01
  +1.40971105948687327469e+01
  +1.25507735219305924801e+01
  +1.07985177027195859978e+01
  +8.86909214786925126361e+00
  +6.79415266652851812523e+00
  +4.60774249402811619802e+00
  +2.34573374938707290838e+00
  +4.52388865860654798556e-02
  -2.25599820415747531754e+00
  -4.52022145499846050853e+00
  -6.71028207886967376083e+00
  -8.79024806431849903277e+00
  -1.07259937068801551874e+01
  -1.24857595046304901132e+01
  -1.40406732317920415198e+01
  -1.53652236412133991195e+01
  -1.64376790237527465877e+01
  -1.72404437573219269098e+01
  -1.77603469957416244540e+01
  -1.79888587609310874882e+01
  -1.79222298930385939286e+01
  -1.75615535623709853041e+01
  -1.69127473339047647016e+01
  -1.59864560786438012485e+01
  -1.47978773247431210081e+01
  -1.33665119138378809538e+01
  -1.17158440535234795732e+01
  -9.87295601532007616186e+00
  -7.86808379971680338372e+00
  -5.73412105843584285481e+00
  -3.50607941299277658942e+00
  -1.22051402402943365288e+00
  +1.08507616397896033966e+00
  +3.37286366254304992296e+00
  +5.60531306935311057771e+00
  +7.74579690625695960193e+00
  +9.75919656105571675653e+00
  +1.16124784735518460366e+01
  +1.32752361124471249809e+01
  +1.47201888509532015092e+01
  +1.59236295561338607740e+01
  +1.68658135484447306851e+01
  +1.75312825498668409807e+01
  +1.79091183056634015713e+01
  +1.79931217186238043837e+01
  +1.77819145567650416240e+01
  +1.72789620657867324383e+01
  +1.64925161152805124232e+01
  +1.54354798114857434399e+01
  +1.41251957978707345376e+01
  +1.25831617168615466085e+01
  +1.08346775010971256847e+01
  +8.90843028105265410943e+00
  +6.83602371939243802501e+00
  +4.65145949419624660237e+00
  +2.39057943828964347688e+00
  +9.04774874187363326028e-02
  -2.21110891464895464864e+00
  -4.47641796896738419775e+00
</dep>
<dep I1.It time>
  +0.00000000000000000000e+00
  +2.30087324355522504504e+00
  +4.56399638885413061473e+00
  +6.75223869810379717649e+00
  +8.82969799267957355937e+00
  +1.07622896950353403867e+01
  +1.25183060494928444228e+01
  +1.40689363468545458602e+01
  +1.53887396175891595362e+01
  +1.64560620381804163515e+01
  +1.72533922023127637146e+01
  +1.77676484280104425295e+01
  +1.79903933869228360720e+01
  +1.79179725343640967594e+01
  +1.75515740689051646939e+01
  +1.68972094377697352741e+01
  +1.59656147078793537730e+01
  +1.47720744207388445801e+01
  +1.33361708211496630128e+01
  +1.16814625741199336062e+01
  +9.83509824121684772535e+00
  +7.82737085799951337606e+00
  +5.69122092051683559077e+00
  +3.46169593529969299439e+00
  +1.17537539993344952727e+00
  -1.13022935152764025801e+00
  -3.41729059165368642681e+00
  -5.64828483375336887207e+00
  -7.78660847435377334591e+00
  -9.79717834328783077069e+00
  -1.16470073082499983030e+01
  -1.33057454899584328700e+01
  -1.47461782082840215935e+01
  -1.59446724896152360884e+01
  -1.68815648096764014952e+01
  -1.75414837101583884760e+01
  -1.79136019960367995907e+01
  -1.79918143758123214582e+01
  -1.77748376301552148959e+01
  -1.72662316655013761135e+01
  -1.64743411071765173403e+01
  -1.54121583903218422051e+01
  -1.40971105948687327469e+01
  -1.25507735219305924801e+01
  -1.07985177027195859978e+01
  -8.86909214786925126361e+00
  -6.79415266652851812523e+00
  -4.60774249402811619802e+00
  -2.34573374938707290838e+00
  -4.52388865860654798556e-02
  +2.25599820415747531754e+00
  +4.52022145499846050853e+00
  +6.71028207886967376083e+00
  +8.79024806431849903277e+00
  +1.07259937068801551874e+01
  +1.24857595046304901132e+01
  +1.40406732317920415198e+01
  +1.53652236412133991195e+01
  +1.64376790237527465877e+01
  +1.72404437573219269098e+01
  +1.77603469957416244540e+01
  +1.79888587609310874882e+01
  +1.79222298930385939286e+01
  +1.75615535623709853041e+01
  +1.69127473339047647016e+01
  +1.59864560786438012485e+01
  +1.47978773247431210081e+01
  +1.33665119138378809538e+01
  +1.17158440535234795732e+01
  +9.87295601532007616186e+00
  +7.86808379971680338372e+00
  +5.73412105843584285481e+00
  +3.50607941299277658942e+00
  +1.22051402402943365288e+00
  -1.08507616397896033966e+00
  -3.37286366254304992296e+00
  -5.60531306935311057771e+00
  -7.74579690625695960193e+00
  -9.75919656105571675653e+00
  -1.16124784735518460366e+01
  -1.32752361124471249809e+01
  -1.47201888509532015092e+01
  -1.59236295561338607740e+01
  -1.68658135484447306851e+01
  -1.75312825498668409807e+01
  -1.79091183056634015713e+01
  -1.79931217186238043837e+01
  -1.77819145567650416240e+01
  -1.72789620657867324383e+01
  -1.64925161152805124232e+01
  -1.54354798114857434399e+01
  -1.41251957978707345376e+01
  -1.25831617168615466085e+01
  -1.08346775010971256847e+01
  -8.90843028105265410943e+00
  -6.83602371939243802501e+00
  -4.65145949419624660237e+00
  -2.39057943828964347688e+00
  -9.04774874187363326028e-02
  +2.21110891464895464864e+00
  +4.47641796896738419775e+00
</dep>
<dep _net0.Vt time>
  +0.00000000000000000000e+00
  +2.30087324355522504504e+01
  +4.56399638885413025946e+01
  +6.75223869810379682121e+01
  +8.82969799267957284883e+01
  +1.07622896950353393208e+02
  +1.25183060494928440676e+02
  +1.40689363468545451497e+02
  +1.53887396175891581152e+02
  +1.64560620381804170620e+02
  +1.72533922023127644252e+02
  +1.77676484280104432401e+02
  +1.79903933869228353615e+02
  +1.79179725343640967594e+02
  +1.75515740689051654044e+02
  +1.68972094377697345635e+02
  +1.59656147078793537730e+02
  +1.47720744207388435143e+02
  +1.33361708211496619469e+02
  +1.16814625741199336062e+02
  +9.83509824121684630427e+01
  +7.82737085799951302079e+01
  +5.69122092051683523550e+01
  +3.46169593529969290557e+01
  +1.17537539993344939404e+01
  -1.13022935152764016919e+01
  -3.41729059165368624917e+01
  -5.64828483375336816152e+01
  -7.78660847435377263537e+01
  -9.79717834328782970488e+01
  -1.16470073082499979478e+02
  -1.33057454899584314489e+02
  -1.47461782082840215935e+02
  -1.59446724896152346673e+02
  -1.68815648096763993635e+02
  -1.75414837101583884760e+02
  -1.79136019960368003012e+02
  -1.79918143758123221687e+02
  -1.77748376301552156065e+02
  -1.72662316655013768241e+02
  -1.64743411071765166298e+02
  -1.54121583903218407841e+02
  -1.40971105948687323917e+02
  -1.25507735219305914143e+02
  -1.07985177027195845767e+02
  -8.86909214786925019780e+01
  -6.79415266652851812523e+01
  -4.60774249402811619802e+01
  -2.34573374938707281956e+01
  -4.52388865860654798556e-01
  +2.25599820415747522873e+01
  +4.52022145499846033090e+01
  +6.71028207886967322793e+01
  +8.79024806431849867749e+01
  +1.07259937068801548321e+02
  +1.24857595046304894026e+02
  +1.40406732317920415198e+02
  +1.53652236412133987642e+02
  +1.64376790237527472982e+02
  +1.72404437573219269098e+02
  +1.77603469957416251646e+02
  +1.79888587609310860671e+02
  +1.79222298930385932181e+02
  +1.75615535623709860147e+02
  +1.69127473339047639911e+02
  +1.59864560786438005380e+02
  +1.47978773247431206528e+02
  +1.33665119138378798880e+02
  +1.17158440535234788626e+02
  +9.87295601532007509604e+01
  +7.86808379971680267317e+01
  +5.73412105843584214426e+01
  +3.50607941299277641178e+01
  +1.22051402402943356407e+01
  -1.08507616397896029525e+01
  -3.37286366254304965651e+01
  -5.60531306935311022244e+01
  -7.74579690625695889139e+01
  -9.75919656105571675653e+01
  -1.16124784735518446155e+02
  -1.32752361124471235598e+02
  -1.47201888509532011540e+02
  -1.59236295561338607740e+02
  -1.68658135484447285535e+02
  -1.75312825498668416913e+02
  -1.79091183056634008608e+02
  -1.79931217186238029626e+02
  -1.77819145567650394923e+02
  -1.72789620657867317277e+02
  -1.64925161152805117126e+02
  -1.54354798114857430846e+02
  -1.41251957978707338270e+02
  -1.25831617168615451874e+02
  -1.08346775010971242637e+02
  -8.90843028105265375416e+01
  -6.83602371939243766974e+01
  -4.65145949419624642474e+01
  -2.39057943828964347688e+01
  -9.04774874187363242761e-01
  +2.21110891464895438219e+01
  +4.47641796896738384248e+01
</dep>
<dep _net1.Vt time>
  +0.00000000000000000000e+00
  +2.30087324355522504504e+01
  +4.56399638885413025946e+01
  +6.75223869810379682121e+01
  +8.82969799267957284883e+01
  +1.07622896950353393208e+02
  +1.25183060494928440676e+02
  +1.40689363468545451497e+02
  +1.53887396175891581152e+02
  +1.64560620381804170620e+02
  +1.72533922023127644252e+02
  +1.77676484280104432401e+02
  +1.79903933869228353615e+02
  +1.79179725343640967594e+02
  +1.75515740689051654044e+02
  +1.68972094377697345635e+02
  +1.59656147078793537730e+02
  +1.47720744207388435143e+02
  +1.33361708211496619469e+02
  +1.16814625741199336062e+02
  +9.83509824121684630427e+01
  +7.82737085799951302079e+01
  +5.69122092051683523550e+01
  +3.46169593529969290557e+01
  +1.17537539993344939404e+01
  -1.13022935152764016919e+01
  -3.41729059165368624917e+01
  -5.64828483375336816152e+01
  -7.78660847435377263537e+01
  -9.79717834328782970488e+01
  -1.16470073082499979478e+02
  -1.33057454899584314489e+02
  -1.47461782082840215935e+02
  -1.59446724896152346673e+02
  -1.68815648096763993635e+02
  -1.75414837101583884760e+02
  -1.79136019960368003012e+02
  -1.79918143758123221687e+02
  -1.77748376301552156065e+02
  -1.72662316655013768241e+02
  -1.64743411071765166298e+02
  -1.54121583903218407841e+02
  -1.40971105948687323917e+02
  -1.25507735219305914143e+02
  -1.07985177027195845767e+02
  -8.86909214786925019780e+01
  -6.79415266652851812523e+01
  -4.60774249402811619802e+01
  -2.34573374938707281956e+01
  -4.52388865860654798556e-01
  +2.25599820415747522873e+01
  +4.52022145499846033090e+01
  +6.71028207886967322793e+01
  +8.79024806431849867749e+01
  +1.07259937068801548321e+02
  +1.24857595046304894026e+02
  +1.40406732317920415198e+02
  +1.53652236412133987642e+02
  +1.64376790237527472982e+02
  +1.72404437573219269098e+02
  +1.77603469957416251646e+02
  +1.79888587609310860671e+02
  +1.79222298930385932181e+02
  +1.75615535623709860147e+02
  +1.69127473339047639911e+02
  +1.59864560786438005380e+02
  +1.47978773247431206528e+02
  +1.33665119138378798880e+02
  +1.17158440535234788626e+02
  +9.87295601532007509604e+01
  +7.86808379971680267317e+01
  +5.73412105843584214426e+01
  +3.50607941299277641178e+01
  +1.22051402402943356407e+01
  -1.08507616397896029525e+01
  -3.37286366254304965651e+01
  -5.60531306935311022244e+01
  -7.74579690625695889139e+01
  -9.75919656105571675653e+01
  -1.16124784735518446155e+02
  -1.32752361124471235598e+02
  -1.47201888509532011540e+02
  -1.59236295561338607740e+02
  -1.68658135484447285535e+02
  -1.75312825498668416913e+02
  -1.79091183056634008608e+02
  -1.79931217186238029626e+02
  -1.77819145567650394923e+02
  -1.72789620657867317277e+02
  -1.64925161152805117126e+02
  -1.54354798114857430846e+02
  -1.41251957978707338270e+02
  -1.25831617168615451874e+02
  -1.08346775010971242637e+02
  -8.90843028105265375416e+01
  -6.83602371939243766974e+01
  -4.65145949419624642474e+01
  -2.39057943828964347688e+01
  -9.04774874187363242761e-01
  +2.21110891464895438219e+01
  +4.47641796896738384248e+01
</dep>
