<Qucs Dataset >
<indep Vb 201>
  +3.29999999999999982236e+00
  +3.28399999999999980815e+00
  +3.26799999999999979394e+00
  +3.25199999999999977973e+00
  +3.23599999999999976552e+00
  +3.21999999999999975131e+00
  +3.20399999999999973710e+00
  +3.18799999999999972289e+00
  +3.17199999999999970868e+00
  +3.15599999999999969447e+00
  +3.13999999999999968026e+00
  +3.12399999999999966604e+00
  +3.10799999999999965183e+00
  +3.09199999999999963762e+00
  +3.07599999999999962341e+00
  +3.05999999999999960920e+00
  +3.04399999999999959499e+00
  +3.02799999999999958078e+00
  +3.01199999999999956657e+00
  +2.99599999999999999645e+00
  +2.97999999999999998224e+00
  +2.96399999999999996803e+00
  +2.94799999999999995381e+00
  +2.93199999999999993960e+00
  +2.91599999999999992539e+00
  +2.89999999999999991118e+00
  +2.88399999999999989697e+00
  +2.86799999999999988276e+00
  +2.85199999999999986855e+00
  +2.83599999999999985434e+00
  +2.81999999999999984013e+00
  +2.80399999999999982592e+00
  +2.78799999999999981171e+00
  +2.77199999999999979750e+00
  +2.75599999999999978328e+00
  +2.73999999999999976907e+00
  +2.72399999999999975486e+00
  +2.70799999999999974065e+00
  +2.69199999999999972644e+00
  +2.67599999999999971223e+00
  +2.65999999999999969802e+00
  +2.64399999999999968381e+00
  +2.62799999999999966960e+00
  +2.61199999999999965539e+00
  +2.59600000000000008527e+00
  +2.58000000000000007105e+00
  +2.56400000000000005684e+00
  +2.54800000000000004263e+00
  +2.53200000000000002842e+00
  +2.51600000000000001421e+00
  +2.50000000000000000000e+00
  +2.48399999999999998579e+00
  +2.46799999999999997158e+00
  +2.45199999999999995737e+00
  +2.43599999999999994316e+00
  +2.41999999999999992895e+00
  +2.40399999999999991473e+00
  +2.38799999999999990052e+00
  +2.37199999999999988631e+00
  +2.35599999999999987210e+00
  +2.33999999999999985789e+00
  +2.32399999999999984368e+00
  +2.30799999999999982947e+00
  +2.29199999999999981526e+00
  +2.27599999999999980105e+00
  +2.25999999999999978684e+00
  +2.24399999999999977263e+00
  +2.22799999999999975842e+00
  +2.21199999999999974420e+00
  +2.19599999999999972999e+00
  +2.17999999999999971578e+00
  +2.16399999999999970157e+00
  +2.14799999999999968736e+00
  +2.13199999999999967315e+00
  +2.11599999999999965894e+00
  +2.09999999999999964473e+00
  +2.08399999999999963052e+00
  +2.06799999999999961631e+00
  +2.05199999999999960210e+00
  +2.03599999999999958789e+00
  +2.01999999999999957367e+00
  +2.00399999999999955946e+00
  +1.98799999999999976730e+00
  +1.97199999999999975309e+00
  +1.95599999999999973888e+00
  +1.93999999999999972466e+00
  +1.92399999999999971045e+00
  +1.90799999999999969624e+00
  +1.89199999999999990408e+00
  +1.87599999999999988987e+00
  +1.85999999999999987566e+00
  +1.84399999999999986144e+00
  +1.82799999999999984723e+00
  +1.81199999999999983302e+00
  +1.79599999999999981881e+00
  +1.77999999999999980460e+00
  +1.76399999999999979039e+00
  +1.74799999999999977618e+00
  +1.73199999999999976197e+00
  +1.71599999999999974776e+00
  +1.69999999999999973355e+00
  +1.68399999999999971934e+00
  +1.66799999999999970512e+00
  +1.65199999999999969091e+00
  +1.63599999999999967670e+00
  +1.61999999999999988454e+00
  +1.60399999999999987033e+00
  +1.58799999999999985612e+00
  +1.57199999999999984190e+00
  +1.55599999999999982769e+00
  +1.53999999999999981348e+00
  +1.52399999999999979927e+00
  +1.50799999999999978506e+00
  +1.49199999999999977085e+00
  +1.47599999999999975664e+00
  +1.45999999999999974243e+00
  +1.44399999999999972822e+00
  +1.42799999999999971401e+00
  +1.41199999999999969980e+00
  +1.39599999999999968558e+00
  +1.37999999999999989342e+00
  +1.36399999999999987921e+00
  +1.34799999999999986500e+00
  +1.33199999999999985079e+00
  +1.31599999999999983658e+00
  +1.29999999999999982236e+00
  +1.28399999999999980815e+00
  +1.26799999999999979394e+00
  +1.25199999999999977973e+00
  +1.23599999999999976552e+00
  +1.21999999999999975131e+00
  +1.20399999999999973710e+00
  +1.18799999999999972289e+00
  +1.17199999999999970868e+00
  +1.15599999999999969447e+00
  +1.13999999999999968026e+00
  +1.12399999999999966604e+00
  +1.10799999999999965183e+00
  +1.09199999999999963762e+00
  +1.07599999999999962341e+00
  +1.05999999999999960920e+00
  +1.04399999999999959499e+00
  +1.02799999999999958078e+00
  +1.01199999999999956657e+00
  +9.95999999999999552358e-01
  +9.79999999999999982236e-01
  +9.63999999999999968026e-01
  +9.47999999999999953815e-01
  +9.31999999999999939604e-01
  +9.15999999999999925393e-01
  +8.99999999999999911182e-01
  +8.83999999999999896971e-01
  +8.67999999999999882760e-01
  +8.51999999999999868550e-01
  +8.35999999999999854339e-01
  +8.19999999999999840128e-01
  +8.03999999999999825917e-01
  +7.87999999999999811706e-01
  +7.71999999999999797495e-01
  +7.55999999999999783284e-01
  +7.39999999999999769074e-01
  +7.23999999999999754863e-01
  +7.07999999999999740652e-01
  +6.91999999999999726441e-01
  +6.75999999999999712230e-01
  +6.59999999999999698019e-01
  +6.43999999999999683808e-01
  +6.27999999999999669598e-01
  +6.11999999999999655387e-01
  +5.95999999999999641176e-01
  +5.79999999999999626965e-01
  +5.63999999999999612754e-01
  +5.47999999999999598543e-01
  +5.31999999999999584332e-01
  +5.15999999999999570122e-01
  +4.99999999999999555911e-01
  +4.83999999999999985789e-01
  +4.67999999999999971578e-01
  +4.51999999999999957367e-01
  +4.35999999999999943157e-01
  +4.19999999999999928946e-01
  +4.03999999999999914735e-01
  +3.87999999999999900524e-01
  +3.71999999999999886313e-01
  +3.55999999999999872102e-01
  +3.39999999999999857891e-01
  +3.23999999999999843681e-01
  +3.07999999999999829470e-01
  +2.91999999999999815259e-01
  +2.75999999999999801048e-01
  +2.59999999999999786837e-01
  +2.43999999999999772626e-01
  +2.27999999999999758415e-01
  +2.11999999999999744205e-01
  +1.95999999999999729994e-01
  +1.79999999999999715783e-01
  +1.63999999999999701572e-01
  +1.47999999999999687361e-01
  +1.31999999999999673150e-01
  +1.15999999999999658939e-01
  +9.99999999999996447286e-02
</indep>
<dep V1.I Vb>
  -1.00013703021398745378e-16
  -1.86560206417823235950e-16
  -3.47268259782800696746e-16
  -6.45686685926392741120e-16
  -1.19981911452634503671e-15
  -2.22878615240695304398e-15
  -4.13947223580202520246e-15
  -7.68741992571674304520e-15
  -1.42755940707722977524e-14
  -2.65091561377645284596e-14
  -4.92256230998616065828e-14
  -9.14077665677166343345e-14
  -1.69735657343013518482e-13
  -3.15182519900782630577e-13
  -5.85262388346291834192e-13
  -1.08677293348075676991e-12
  -2.01802644846790601090e-12
  -3.74726846975950140827e-12
  -6.95829309137462061259e-12
  -1.29208356255881052226e-11
  -2.39926639528904864556e-11
  -4.45519104690509517829e-11
  -8.27283164274157694612e-11
  -1.53617973918459186676e-10
  -2.85252768582052532260e-10
  -5.29685011982817233744e-10
  -9.83570433331857656599e-10
  -1.82638857235637242940e-09
  -3.39141375221356089210e-09
  -6.29749961431093979253e-09
  -1.16937850891894323265e-08
  -2.17140731904933210095e-08
  -4.03205138835244380102e-08
  -7.48700577174513353784e-08
  -1.39022583049926804909e-07
  -2.58138865446844574482e-07
  -4.79296732094611265072e-07
  -8.89864813455844218433e-07
  -1.65190527853987688053e-06
  -3.06575773079045085071e-06
  -5.68708455142921246491e-06
  -1.05407191081168685287e-05
  -1.95059415593933226812e-05
  -3.59925463215910717966e-05
  -6.60690155319255251459e-05
  -1.20167635503426009397e-04
  -2.15166334704601145116e-04
  -3.75714792527501010872e-04
  -6.32353187680223028690e-04
  -1.01438791842875433019e-03
  -1.54010396118286780470e-03
  -2.21144000374480552765e-03
  -3.01667650151350068624e-03
  -3.93726961398458471381e-03
  -4.95366590115704687886e-03
  -6.04834921158825967319e-03
  -7.20679181447096434826e-03
  -8.41736546623720639781e-03
  -9.67088983534352894522e-03
  -1.09601319720897590754e-02
  -1.22793692821980895968e-02
  -1.36240405582015496749e-02
  -1.49904778302409891211e-02
  -1.63757035057020446100e-02
  -1.77772775175613143017e-02
  -1.91931819033202485936e-02
  -2.06217331639845513624e-02
  -2.20615152262069839917e-02
  -2.35113277398616878078e-02
  -2.49701458587951660717e-02
  -2.64370886832264173627e-02
  -2.79113942877945442333e-02
  -2.93923997981365182908e-02
  -3.08795253696597694903e-02
  -3.23722612070063697765e-02
  -3.38701569716142458777e-02
  -3.53728130791485378959e-02
  -3.68798735034722158233e-02
  -3.83910197899706082114e-02
  -3.99059660461563575629e-02
  -4.14244547270437440956e-02
  -4.29462530707880388303e-02
  -4.44711500694122685573e-02
  -4.59989538822883278768e-02
  -4.75294896178607845227e-02
  -4.90625974231867836850e-02
  -5.05981308319940481510e-02
  -5.21359553308252329784e-02
  -5.36759471099869447941e-02
  -5.52179919716993330980e-02
  -5.67619843725294601078e-02
  -5.83078265809453683000e-02
  -5.98554279339249817316e-02
  -6.14047041790804423722e-02
  -6.29555768908634932890e-02
  -6.45079729511284227783e-02
  -6.60618240858260458159e-02
  -6.76170664507082241901e-02
  -6.91736402600395261508e-02
  -7.07314894530908233605e-02
  -7.22905613939200247797e-02
  -7.38508066005681279576e-02
  -7.54121785002992983671e-02
  -7.69746332079471601295e-02
  -7.85381293248390843775e-02
  -8.01026277560253074927e-02
  -8.16680915438932203410e-02
  -8.32344857164395435234e-02
  -8.48017771486624244437e-02
  -8.63699344357733572730e-02
  -8.79389277770487726160e-02
  -8.95087288692219540387e-02
  -9.10793108085790198425e-02
  -9.26506480008349175836e-02
  -9.42227160781402145462e-02
  -9.57954918224963591911e-02
  -9.73689530950441334278e-02
  -9.89430787706576664320e-02
  -1.00517848677402502067e-01
  -1.02093243540413353143e-01
  -1.03669244929833578861e-01
  -1.05245835212441157802e-01
  -1.06822997506681616198e-01
  -1.08400715640806916129e-01
  -1.09978974113878594232e-01
  -1.11557758059394801498e-01
  -1.13137053211338572956e-01
  -1.14716845872457631761e-01
  -1.16297122884602630033e-01
  -1.17877871600966424581e-01
  -1.19459079860060116141e-01
  -1.21040735961360043649e-01
  -1.22622828642404757549e-01
  -1.24205347057317991299e-01
  -1.25788280756643250369e-01
  -1.27371619668335767095e-01
  -1.28955354079901690634e-01
  -1.30539474621589518533e-01
  -1.32123972250509397197e-01
  -1.33708838235698457275e-01
  -1.35294064144002412764e-01
  -1.36879641826748776889e-01
  -1.38465563407149577779e-01
  -1.40051821268412896027e-01
  -1.41638408042464303271e-01
  -1.43225316599288748920e-01
  -1.44812540036832609891e-01
  -1.46400071671433013032e-01
  -1.47987905028747618319e-01
  -1.49576033835122745863e-01
  -1.51164452009447530800e-01
  -1.52753153655370288444e-01
  -1.54342133053925079089e-01
  -1.55931384656521732079e-01
  -1.57520903078271462538e-01
  -1.59110683091630067398e-01
  -1.60700719620365667373e-01
  -1.62291007733788544831e-01
  -1.63881542641244298819e-01
  -1.65472319686909841163e-01
  -1.67063334344740771487e-01
  -1.68654582213657616707e-01
  -1.70246059012865130766e-01
  -1.71837760577136622331e-01
  -1.73429682851696770340e-01
  -1.75021821885948558606e-01
  -1.76614173823690601139e-01
  -1.78206734884584855338e-01
  -1.79799501322943894310e-01
  -1.81392469329485078733e-01
  -1.82985634788837753240e-01
  -1.84578992673472747077e-01
  -1.86172535521184900897e-01
  -1.87766249603019408365e-01
  -1.89360105272023709899e-01
  -1.90954032657124100902e-01
  -1.92547860494146599875e-01
  -1.94141162513499110354e-01
  -1.95732873784742522627e-01
  -1.97320345741399394424e-01
  -1.98897099121649545417e-01
  -2.00447939332634689213e-01
  -2.01940589269646197934e-01
  -2.03319516174327724611e-01
  -2.04520717370321153394e-01
  -2.05510663473617516406e-01
  -2.06303643661052860114e-01
  -2.06939154616416653987e-01
  -2.07456951588156135458e-01
  -2.07887967189770095366e-01
  -2.08254310912233897568e-01
  -2.08571496386615984342e-01
  -2.08850496992997625156e-01
  -2.09099215156349993450e-01
  -2.09323461400295673940e-01
  -2.09527597510822616300e-01
  -2.09714962048221709168e-01
  -2.09888156253771773763e-01
  -2.10049239770403906036e-01
  -2.10199867212716107190e-01
  -2.10341385260703450655e-01
</dep>
<dep V2.I Vb>
  -4.30308157152594405220e-16
  -4.27237327112345373825e-16
  -4.24157254700320394768e-16
  -4.19553128862253883683e-16
  -4.12666042075659226367e-16
  -4.00614640540971589773e-16
  -3.80318200580523197562e-16
  -3.43977088273805940702e-16
  -2.77052620691607576012e-16
  -1.54253331186666212121e-16
  +7.23838381504977386441e-17
  +4.91465240064571465831e-16
  +1.26855511042052650500e-15
  +2.71056724858376816067e-15
  +5.38640203554814843081e-15
  +1.03532707395980984157e-14
  +1.95748366252389536617e-14
  +3.66977500450941280436e-14
  +6.84920834726782007454e-14
  +1.27528315884299210517e-13
  +2.37152751102544642469e-13
  +4.40710696450873738801e-13
  +8.18696479293165748136e-13
  +1.52057573573932055245e-12
  +2.82389245779448070191e-12
  +5.24401524472090161379e-12
  +9.73793133964744028878e-12
  +1.80826673060484502459e-11
  +3.35779676405447795393e-11
  +6.23510962353592466816e-11
  +1.15779667674103532741e-10
  +2.14990441905117093146e-10
  +3.99212629031294306641e-10
  +7.41287321950348353086e-10
  +1.37646084134445370719e-09
  +2.55582997654292287956e-09
  +4.74551182572332420588e-09
  +8.81054233572859083381e-09
  +1.63554974373643070553e-08
  +3.03540365700804637658e-08
  +5.63077674688357725869e-08
  +1.04363555160353257558e-07
  +1.93128133887609359145e-07
  +3.56361844405885444718e-07
  +6.54148668272610092948e-07
  +1.18977856898207096036e-06
  +2.13035974919324968237e-06
  +3.71994844051087110090e-06
  +6.26092264994506086793e-06
  +1.00434447365660949048e-05
  +1.52485540707670929841e-05
  +2.18954455812840106780e-05
  +2.98680841730546747423e-05
  +3.89828674648495863801e-05
  +4.90461970408166168865e-05
  +5.98846456589494327452e-05
  +7.13543744003636390850e-05
  +8.33402521406272095037e-05
  +9.57513845080194440440e-05
  +1.08516158139172115712e-04
  +1.21577913684800390567e-04
  +1.34891490674937143679e-04
  +1.48420572576319763792e-04
  +1.62135678273955412048e-04
  +1.76012648688404256406e-04
  +1.90031503992952580020e-04
  +2.04175575880720269707e-04
  +2.18430843823517930463e-04
  +2.32785423166639453317e-04
  +2.47229166918450321642e-04
  +2.61753353298959572180e-04
  +2.76350438492710805214e-04
  +2.91013859387185343415e-04
  +3.05737874946823804008e-04
  +3.20517437692835406755e-04
  +3.35348088827566791041e-04
  +3.50225872070480622779e-04
  +3.65147262410322982415e-04
  +3.80109106831100554674e-04
  +3.95108574714127496873e-04
  +4.10143116109057610016e-04
  +4.25210426443158376591e-04
  +4.40308416528552033081e-04
  +4.55435186953071207555e-04
  +4.70589006117157985370e-04
  +4.85768291318410721027e-04
  +5.00971592395701515246e-04
  +5.16197577532648797793e-04
  +5.31445020890692568921e-04
  +5.46712791798738425263e-04
  +5.61999845272299729249e-04
  +5.77305213672457510909e-04
  +5.92627999345528722747e-04
  +6.07967368109453565328e-04
  +6.23322543473629970059e-04
  +6.38692801496072476604e-04
  +6.54077466196051251351e-04
  +6.69475905452306552929e-04
  +6.84887527326879337261e-04
  +7.00311776763035305493e-04
  +7.15748132612831515151e-04
  +7.31196104955886250730e-04
  +7.46655232675986590789e-04
  +7.62125081266570403131e-04
  +7.77605240839757973735e-04
  +7.93095324316848613276e-04
  +8.08594965780909066301e-04
  +8.24103818974434676296e-04
  +8.39621555927122184028e-04
  +8.55147865700518869554e-04
  +8.70682453237887660387e-04
  +8.86225038308929521404e-04
  +9.01775354540181668835e-04
  +9.17333148522920843911e-04
  +9.32898178991280820245e-04
  +9.48470216064122733680e-04
  +9.64049040544800940784e-04
  +9.79634443273656339499e-04
  +9.95226224528552964876e-04
  +1.01082419346926470800e-03
  +1.02642816762193848402e-03
  +1.04203797240022934603e-03
  +1.05765344066003253061e-03
  +1.07327441228504175640e-03
  +1.08890073380060866878e-03
  +1.10453225801364091768e-03
  +1.12016884367645026127e-03
  +1.13581035517268630168e-03
  +1.15145666222364107846e-03
  +1.16710763961335958240e-03
  +1.18276316693114455850e-03
  +1.19842312833014588182e-03
  +1.21408741230086248374e-03
  +1.22975591145845159283e-03
  +1.24542852234286517167e-03
  +1.26110514523089479663e-03
  +1.27678568395929014495e-03
  +1.29247004575816634361e-03
  +1.30815814109401322950e-03
  +1.32384988352163995330e-03
  +1.33954518954445124350e-03
  +1.35524397848251474709e-03
  +1.37094617234788471866e-03
  +1.38665169572673558328e-03
  +1.40236047566783439584e-03
  +1.41807244157698573647e-03
  +1.43378752511703552730e-03
  +1.44950566011310395635e-03
  +1.46522678246273200565e-03
  +1.48095083005062022607e-03
  +1.49667774266769651459e-03
  +1.51240746193424704762e-03
  +1.52813993122686794281e-03
  +1.54387509560901755624e-03
  +1.55961290176495387567e-03
  +1.57535329793686011864e-03
  +1.59109623386499113469e-03
  +1.60684166073064155222e-03
  +1.62258953110180448136e-03
  +1.63833979888136009422e-03
  +1.65409241925764944996e-03
  +1.66984734865732145810e-03
  +1.68560454470031940641e-03
  +1.70136396615692855709e-03
  +1.71712557290682366236e-03
  +1.73288932590010989407e-03
  +1.74865518712060893924e-03
  +1.76442311955200240199e-03
  +1.78019308714866351245e-03
  +1.79596505481574662128e-03
  +1.81173898841018661716e-03
  +1.82751485479177243863e-03
  +1.84329262199730723945e-03
  +1.85907225972046694605e-03
  +1.87485374055372413897e-03
  +1.89063704313214816025e-03
  +1.90642216002097873717e-03
  +1.92220911740216830917e-03
  +1.93799802388222629571e-03
  +1.95378918975663579821e-03
  +1.96958340817250188506e-03
  +1.98538256011374395979e-03
  +2.00119063457169198139e-03
  +2.01701443526817233293e-03
  +2.03286166022894048550e-03
  +2.04873607829961917881e-03
  +2.06463552616994701697e-03
  +2.08055482998931130442e-03
  +2.09648890106673346442e-03
  +2.11243381950154858473e-03
  +2.12838679977799547297e-03
  +2.14434589502825135796e-03
  +2.16030973212084833474e-03
  +2.17627732441546704531e-03
  +2.19224794776667984003e-03
  +2.20822105940197358637e-03
  +2.22419624441270134818e-03
  +2.24017317988417768299e-03
  +2.25615161038672084465e-03
  +2.27213133090061478528e-03
  +2.28811217469299414337e-03
</dep>
<dep I1.I Vb>
  +5.30027406041056610822e-16
  +6.14116900778273675953e-16
  +7.71633672712068202155e-16
  +1.06549734838706180385e-15
  +1.61254320471196004601e-15
  +2.62972233755233701211e-15
  +4.51989062436749295742e-15
  +8.03111000674630578000e-15
  +1.45524545922356949132e-14
  +2.66632921697399526227e-14
  +4.91532435047748966894e-14
  +9.09161418752141507711e-14
  +1.68466896301734794339e-13
  +3.12472090911997670105e-13
  +5.79876301252695500498e-13
  +1.07641979544385410485e-12
  +1.99845137859798829578e-12
  +3.71057059175671782637e-12
  +6.88980129038416990223e-12
  +1.27933071499998171468e-11
  +2.37555118146551244296e-11
  +4.41111998346135710254e-11
  +8.19096199755708799192e-11
  +1.52097398069669475104e-10
  +2.82428876334608592163e-10
  +5.24440996913599822691e-10
  +9.73832501599772792378e-10
  +1.80830590497450442326e-09
  +3.35783578442119918279e-09
  +6.23514851757117101697e-09
  +1.15780054217914358919e-08
  +2.14990827482146383984e-08
  +3.99213012545658432635e-08
  +7.41287703954675212622e-08
  +1.37646122208200016535e-07
  +2.55583035470874629273e-07
  +4.74551220269036566197e-07
  +8.81054271120142358768e-07
  +1.63554978110276849985e-06
  +3.03540369422043591950e-06
  +5.63077678396023519812e-06
  +1.04363555529563665374e-05
  +1.93128134255066466994e-05
  +3.56361844771854762489e-05
  +6.54148668636549081214e-05
  +1.18977856934441818737e-04
  +2.13035974955409112197e-04
  +3.71994844086994585000e-04
  +6.26092265030285663116e-04
  +1.00434447369218454900e-03
  +1.52485540711210908887e-03
  +2.18954455816354346190e-03
  +2.98680841734039713431e-03
  +3.89828674651979340329e-03
  +4.90461970411627378591e-03
  +5.98846456592935783014e-03
  +7.13543744007064887486e-03
  +8.33402521409662769281e-03
  +9.57513845083550994841e-03
  +1.08516158139506085217e-02
