<Qucs Dataset 0.0.20>
<indep frequency 201>
  +1.00000000000000000000e+02
  +1.02329299228075413453e+02
  +1.04712854805089961019e+02
  +1.07151930523760640313e+02
  +1.09647819614318507320e+02
  +1.12201845430196328834e+02
  +1.14815362149688283466e+02
  +1.17489755493952955590e+02
  +1.20226443461741297369e+02
  +1.23026877081238154688e+02
  +1.25892541179416724617e+02
  +1.28824955169313398073e+02
  +1.31825673855640729926e+02
  +1.34896288259165373802e+02
  +1.38038426460288462749e+02
  +1.41253754462275423975e+02
  +1.44543977074592731924e+02
  +1.47910838816820756847e+02
  +1.51356124843620818865e+02
  +1.54881661891248143093e+02
  +1.58489319246111364237e+02
  +1.62181009735893013612e+02
  +1.65958690743756051234e+02
  +1.69824365246174437516e+02
  +1.73780082874937562565e+02
  +1.77827941003892306071e+02
  +1.81970085860998352700e+02
  +1.86208713666286740818e+02
  +1.90546071796324724801e+02
  +1.94984459975804526266e+02
  +1.99526231496887987760e+02
  +2.04173794466952955418e+02
  +2.08929613085403957484e+02
  +2.13796208950223217471e+02
  +2.18776162394955264290e+02
  +2.23872113856833976797e+02
  +2.29086765276777327927e+02
  +2.34422881531992203463e+02
  +2.39883291901949036173e+02
  +2.45470891568503049029e+02
  +2.51188643150958000660e+02
  +2.57039578276886402364e+02
  +2.63026799189538223800e+02
  +2.69153480392691619727e+02
  +2.75422870333816604216e+02
  +2.81838293126445421422e+02
  +2.88403150312660613963e+02
  +2.95120922666638591636e+02
  +3.01995172040201680375e+02
  +3.09029543251359029910e+02
  +3.16227766016837961160e+02
  +3.23593656929628252783e+02
  +3.31131121482591140648e+02
  +3.38844156139202539180e+02
  +3.46736850452531712108e+02
  +3.54813389233575492199e+02
  +3.63078054770101346094e+02
  +3.71535229097172532420e+02
  +3.80189396320561172615e+02
  +3.89045144994280690298e+02
  +3.98107170553497269339e+02
  +4.07380277804112836293e+02
  +4.16869383470335492348e+02
  +4.26579518801592712407e+02
  +4.36515832240165991607e+02
  +4.46683592150963079348e+02
  +4.57088189614875091138e+02
  +4.67735141287198189275e+02
  +4.78630092322638404312e+02
  +4.89778819368446249882e+02
  +5.01187233627272348713e+02
  +5.12861383991364959911e+02
  +5.24807460249772702809e+02
  +5.37031796370252891393e+02
  +5.49540873857624546872e+02
  +5.62341325190349152763e+02
  +5.75439937337156948161e+02
  +5.88843655355589021383e+02
  +6.02559586074357753205e+02
  +6.16595001861482273853e+02
  +6.30957344480193341951e+02
  +6.45654229034655600117e+02
  +6.60693448007596089155e+02
  +6.76082975391981790381e+02
  +6.91830970918936714043e+02
  +7.07945784384137937195e+02
  +7.24435960074990248359e+02
  +7.41310241300917596163e+02
  +7.58577575029183776678e+02
  +7.76247116628691742335e+02
  +7.94328234724281742274e+02
  +8.12830516164099321941e+02
  +8.31763771102671057633e+02
  +8.51138038202376492336e+02
  +8.70963589956080795673e+02
  +8.91250938133745762570e+02
  +9.12010839355909865844e+02
  +9.33254300796991060452e+02
  +9.54992586021435840848e+02
  +9.77237220955811039858e+02
  +1.00000000000000022737e+03
  +1.02329299228075433348e+03
  +1.04712854805089955335e+03
  +1.07151930523760688629e+03
  +1.09647819614318541426e+03
  +1.12201845430196362940e+03
  +1.14815362149688280624e+03
  +1.17489755493952952747e+03
  +1.20226443461741337160e+03
  +1.23026877081238171741e+03
  +1.25892541179416753039e+03
  +1.28824955169313398073e+03
  +1.31825673855640707188e+03
  +1.34896288259165407908e+03
  +1.38038426460288519593e+03
  +1.41253754462275446713e+03
  +1.44543977074592748977e+03
  +1.47910838816820796637e+03
  +1.51356124843620864340e+03
  +1.54881661891248177199e+03
  +1.58489319246111358552e+03
  +1.62181009735892985191e+03
  +1.65958690743756142183e+03
  +1.69824365246174488675e+03
  +1.73780082874937556880e+03
  +1.77827941003892283334e+03
  +1.81970085860998415228e+03
  +1.86208713666286803345e+03
  +1.90546071796324758907e+03
  +1.94984459975804543319e+03
  +1.99526231496887976391e+03
  +2.04173794466952995208e+03
  +2.08929613085403980222e+03
  +2.13796208950223217471e+03
  +2.18776162394955281343e+03
  +2.23872113856834039325e+03
  +2.29086765276777396139e+03
  +2.34422881531992243254e+03
  +2.39883291901949087332e+03
  +2.45470891568503066082e+03
  +2.51188643150958114347e+03
  +2.57039578276886459207e+03
  +2.63026799189538223800e+03
  +2.69153480392691562884e+03
  +2.75422870333816763377e+03
  +2.81838293126445478265e+03
  +2.88403150312660636700e+03
  +2.95120922666638625742e+03
  +3.01995172040201623531e+03
  +3.09029543251359200440e+03
  +3.16227766016838040741e+03
  +3.23593656929628332364e+03
  +3.31131121482591106542e+03
  +3.38844156139202550548e+03
  +3.46736850452531780320e+03
  +3.54813389233575526305e+03
  +3.63078054770101425675e+03
  +3.71535229097172623369e+03
  +3.80189396320561399989e+03
  +3.89045144994280735773e+03
  +3.98107170553497326182e+03
  +4.07380277804112802187e+03
  +4.16869383470335469610e+03
  +4.26579518801592803356e+03
  +4.36515832240166128031e+03
  +4.46683592150963249878e+03
  +4.57088189614875045663e+03
  +4.67735141287198348437e+03
  +4.78630092322638574842e+03
  +4.89778819368446329463e+03
  +5.01187233627272416925e+03
  +5.12861383991364891699e+03
  +5.24807460249772884708e+03
  +5.37031796370252959605e+03
  +5.49540873857624683296e+03
  +5.62341325190349198238e+03
  +5.75439937337156970898e+03
  +5.88843655355588907696e+03
  +6.02559586074357684993e+03
  +6.16595001861482614913e+03
  +6.30957344480193660274e+03
  +6.45654229034655872965e+03
  +6.60693448007596271054e+03
  +6.76082975391981926805e+03
  +6.91830970918936600356e+03
  +7.07945784384137914458e+03
  +7.24435960074990089197e+03
  +7.41310241300917459739e+03
  +7.58577575029184299638e+03
  +7.76247116628692128870e+03
  +7.94328234724281992385e+03
  +8.12830516164099663001e+03
  +8.31763771102671307744e+03
  +8.51138038202376628760e+03
  +8.70963589956080795673e+03
  +8.91250938133745694358e+03
  +9.12010839355909774895e+03
  +9.33254300796991810785e+03
  +9.54992586021436545707e+03
  +9.77237220955811244494e+03
  +1.00000000000000036380e+04
</indep>
<dep S11_dB frequency>
  -6.00253847569219800562e+01
  -5.94253853965973490858e+01
  -5.88253861310380159466e+01
  -5.82253869742918439556e+01
  -5.76253879424756974004e+01
  -5.70253890540994348157e+01
  -5.64253903304150838949e+01
  -5.58253917958185184034e+01
  -5.52253934783273763287e+01
  -5.46253954101031595769e+01
  -5.40253976280816914368e+01
  -5.34254001746569713305e+01
  -5.28254030985148830268e+01
  -5.22254064555506545275e+01
  -5.16254103099423531376e+01
  -5.10254147353710152402e+01
  -5.04254198164380227354e+01
  -4.98254256502749512947e+01
  -4.92254323484062510374e+01
  -4.86254400388791196974e+01
  -4.80254488687041103390e+01
  -4.74254590066781673841e+01
  -4.68254706466014525290e+01
  -4.62254840109821074634e+01
  -4.56254993552936127799e+01
  -4.50255169728540067808e+01
  -4.44255372004320108204e+01
  -4.38255604246820382741e+01
  -4.32255870895355229777e+01
  -4.26256177046827033905e+01
  -4.20256528553081309951e+01
  -4.14256932132750677056e+01
  -4.08257395499583566334e+01
  -4.02257927509792949650e+01
  -3.96258538331206509042e+01
  -3.90259239637431747383e+01
  -3.84260044830745215449e+01
  -3.78260969297960016888e+01
  -3.72262030704070028264e+01
  -3.66263249329347360117e+01
  -3.60264648456208007588e+01
  -3.54266254813197463136e+01
  -3.48268099084519704434e+01
  -3.42270216494743166891e+01
  -3.36272647479654978042e+01
  -3.30275438455984371444e+01
  -3.24278642704393220697e+01
  -3.18282321382290120937e+01
  -3.12286544685401601384e+01
  -3.06291393179751452180e+01
  -3.00296959328656427601e+01
  -2.94303349243050824668e+01
  -2.88310684687170777352e+01
  -2.82319105376254810835e+01
  -2.76328771607875403049e+01
  -2.70339867274193181856e+01
  -2.64352603308749500854e+01
  -2.58367221628479555307e+01
  -2.52383999639455893771e+01
  -2.46403255383503747566e+01
  -2.40425353412269160458e+01
  -2.34450711485551153146e+01
  -2.28479808201655316680e+01
  -2.22513191679055992722e+01
  -2.16551489420574903022e+01
  -2.10595419503199430267e+01
  -2.04645803248181969991e+01
  -1.98703579536361161217e+01
  -1.92769820941871614650e+01
  -1.86845751862212523520e+01
  -1.80932768822277836307e+01
  -1.75032463122237018638e+01
  -1.69146645981135499426e+01
  -1.63277376296208558415e+01
  -1.57426991087659295943e+01
  -1.51598138624696190391e+01
  -1.45793814124654907971e+01
  -1.40017397775887015854e+01
  -1.34272694649125590161e+01
  -1.28563975823471654536e+01
  -1.22896019755093117709e+01
  -1.17274152554483137578e+01
  -1.11704285411122228311e+01
  -1.06192946918810466883e+01
  -1.00747307527030187657e+01
  -9.53751928034543539070e+00
  -9.00850816877911064751e+00
  -8.48860855157867533194e+00
  -7.97879033842794527231e+00
  -7.48007495224968899095e+00
  -6.99352488504832869864e+00
  -6.52022979564474347569e+00
  -6.06128903952482822604e+00
  -5.61779075243163283915e+00
  -5.19078789817795538397e+00
  -4.78127201844843430223e+00
  -4.39014575596394074353e+00
  -4.01819551877137559615e+00
  -3.66606586296930148094e+00
  -3.33423724680220745498e+00
  -3.02300871686439309727e+00
  -2.73248681642942026215e+00
  -2.46258157534057620097e+00
  -2.21300989835120676119e+00
  -1.98330608394757934576e+00
  -1.77283865664319106870e+00
  -1.58083225345258782113e+00
  -1.40639301984890718877e+00
  -1.24853586324412657582e+00
  -1.10621197450460129197e+00
  -9.78335227943563978670e-01
  -8.63806361227592134355e-01
  -7.61534168906641162344e-01
  -6.70453272527524957169e-01
  -5.89538323309531708816e-01
  -5.17814730049839466730e-01
  -4.54366177430232665024e-01
  -3.98339309963317234065e-01
  -3.48946012496851531992e-01
  -3.05463730722480120150e-01
  -2.67234256455542218411e-01
  -2.33661363575952157889e-01
  -2.04207630606877188484e-01
  -1.78390731973023380919e-01
  -1.55779426945032523077e-01
  -1.35989426282428133019e-01
  -1.18679273354722975009e-01
  -1.03546339744211457479e-01
  -9.03230049979031612839e-02
  -7.87730658627770474745e-02
  -6.86884013235420365362e-02
  -5.98859053013637981921e-02
  -5.22046881871814430487e-02
  -4.55035407602967095775e-02
  -3.96586488399762460144e-02
  -3.45615436934181702311e-02
  -3.01172713196881935982e-02
  -2.62427628817257611871e-02
  -2.28653884702439691434e-02
  -1.99216768273082003859e-02
  -1.73561844548622105922e-02
  -1.51204985528498696279e-02
  -1.31723593734289871893e-02
  -1.14748887699117809585e-02
  -9.99591291154538173769e-03
  -8.70736829298287239032e-03
  -7.58478126750593891620e-03
  -6.60681236216181366067e-03
  -5.75485758404118905029e-03
  -5.01269979676341112529e-03
  -4.36620403582510790280e-03
  -3.80305134434157088297e-03
  -3.31250634928659032016e-03
  -2.88521436979749783952e-03
  -2.51302435714126576674e-03
  -2.18883441710274618403e-03
  -1.90645706429738302952e-03
  -1.66050171124241022734e-03
  -1.44627220422177378903e-03
  -1.25967749317208721482e-03
  -1.09715376149537480362e-03
  -9.55596553045576094579e-04
  -8.32301619112319705091e-04
  -7.24913368795221022510e-04
  -6.31379949224969406162e-04
  -5.49914104984446897202e-04
  -4.78959075720073487563e-04
  -4.17158884170339475366e-04
  -3.63332450931840435053e-04
  -3.16451043868721843162e-04
  -2.75618632909335552726e-04
  -2.40054776858391352668e-04
  -2.09079715858176428973e-04
  -1.82101385518643535399e-04
  -1.58604105525164034221e-04
  -1.38138726630162504520e-04
  -1.20314048153598811665e-04
  -1.04789342587824851026e-04
  -9.12678440919944671548e-05
  -7.94910769249398355824e-05
  -6.92339154915432573086e-05
  -6.03002816012216318964e-05
  -5.25193967832677645964e-05
  -4.57425180494597382491e-05
  -3.98400948154759370983e-05
  -3.46992925173218215180e-05
  -3.02218359628664052943e-05
  -2.63221305687446180583e-05
  -2.29256262931196924464e-05
  -1.99673925743421343845e-05
  -1.73908770844229134908e-05
  -1.51468246779936763951e-05
  -1.31923357392276841861e-05
  -1.14900463588826853313e-05
  -1.00074137367526903733e-05
  -8.71609427616899351239e-06
  -7.59140173662829707813e-06
  -6.61183528176594598603e-06
  -5.75866836396587519656e-06
  -5.01559087660795645134e-06
  -4.36839737693185755794e-06
</dep>
<dep S21_dB frequency>
  -4.31763625225421382252e-06
  -4.95730934027331503905e-06
  -5.69175218203656116780e-06
  -6.53500524827539294828e-06
  -7.50318910103197524576e-06
  -8.61481264553062983051e-06
  -9.89112688076686650727e-06
  -1.13565312257592308939e-05
  -1.30390399402961621573e-05
  -1.49708175951916397947e-05
  -1.71887940474681641888e-05
  -1.97353703576046408225e-05
  -2.26592293070339841716e-05
  -2.60162661291845800210e-05
  -2.98706569253553037087e-05
  -3.42960854485250781604e-05
  -3.93771516823219144029e-05
  -4.52109889397149045456e-05
  -5.19091206498210059250e-05
  -5.95995920961279489268e-05
  -6.84294179398261577388e-05
  -7.85673923181125211362e-05
  -9.02073151393058172542e-05
  -1.03571696204169159212e-04
  -1.18916008005158017045e-04
  -1.36533568303859526635e-04
  -1.56761145847676545452e-04
  -1.79985396065299825194e-04
  -2.06650249907828462191e-04
  -2.37265396515511518393e-04
  -2.72416021814200824767e-04
  -3.12773988728801382708e-04
  -3.59110672079117885548e-04
  -4.12311693213453331775e-04
  -4.73393834611619953798e-04
  -5.43524457040945978281e-04
  -6.24043788597058437725e-04
  -7.16490509772711964102e-04
  -8.22631120749464455309e-04
  -9.44493648709701866598e-04
  -1.08440633475778919551e-03
  -1.24504203354264698228e-03
  -1.42946916599069910256e-03
  -1.64121018817061118875e-03
  -1.88430867931189223105e-03
  -2.16340631243150177329e-03
  -2.48383115331271119713e-03
  -2.85169894280216679877e-03
  -3.27402925428788623557e-03
  -3.75887868908276068930e-03
  -4.31549357963554713197e-03
  -4.95448501910002083587e-03
  -5.68802943108398777888e-03
  -6.53009833944179912679e-03
  -7.49672150148864360752e-03
  -8.60628813325453947969e-03
  -9.87989158890927032797e-03
  -1.13417235619204734287e-02
  -1.30195246595865808670e-02
  -1.49450990643739574371e-02
  -1.71549019408926174679e-02
  -1.96907092690975886462e-02
  -2.26003808794905287904e-02
  -2.59387286196202312971e-02
  -2.97685027714824773648e-02
  -3.41615110339192548650e-02
  -3.91998855321862987866e-02
  -4.49775143500679708275e-02
  -5.16016549011430875060e-02
  -5.91947469352445271307e-02
  -6.78964429418123516236e-02
  -7.78658729377072478250e-02
  -8.92841588275253561502e-02
  -1.02357190334841571810e-01
  -1.17318669479902229491e-01
  -1.34433423183592970496e-01
  -1.54000973179486688736e-01
  -1.76359338302702034484e-01
  -2.01889025626542040204e-01
  -2.31017143061144097915e-01
  -2.64221536223291753043e-01
  -3.02034816162312813592e-01
  -3.45048101826208153398e-01
  -3.93914252595032932103e-01
  -4.49350313417008706551e-01
  -5.12138841059424754221e-01
  -5.83127729493108537540e-01
  -6.63228112292663762872e-01
  -7.53409899141932570821e-01
  -8.54694512963676045203e-01
  -9.68144445762336047778e-01
  -1.09484935635873315007e+00
  -1.23590860023882020968e+00
  -1.39241031314561980459e+00
  -1.56540745889194132801e+00
  -1.75589157916242744051e+00
  -1.96476531667793108404e+00
  -2.19281507948536535935e+00
  -2.44068542368328600389e+00
  -2.70885680751620405715e+00
  -2.99762827757838579146e+00
  -3.30710637714341126880e+00
  -3.63720113605456463191e+00
  -3.98762945906521437678e+00
  -4.35792564466158172110e+00
  -4.74745821735718642742e+00
  -5.15545181416657349871e+00
  -5.58101258056289939447e+00
  -6.02315542395813174892e+00
  -6.48083153521859145485e+00
  -6.95295478865755622877e+00
  -7.43842592194158047647e+00
  -7.93615372962063858608e+00
  -8.44507283324152702164e+00
  -8.96415788402353186370e+00
  -9.49243429076382838616e+00
  -1.00289857381442200079e+01
  -1.05729588706773132145e+01
  -1.11235655732108451588e+01
  -1.16800832914364765003e+01
  -1.22418538171695328032e+01
  -1.28082809242899386959e+01
  -1.33788271913208838271e+01
  -1.39530102926870185343e+01
  -1.45303989876590300412e+01
  -1.51106089869964161920e+01
  -1.56932988340687202822e+01
  -1.62781659004582159866e+01
  -1.68649425657119031996e+01
  -1.74533926265767647124e+01
  -1.80433079620375309560e+01
  -1.86345054660153621739e+01
  -1.92268242489011811358e+01
  -1.98201231014742837999e+01
  -2.04142782095539772058e+01
  -2.10091811044074141535e+01
  -2.16047368320336907743e+01
  -2.22008623235957216480e+01
  -2.27974849491842306293e+01
  -2.33945412375413113182e+01
  -2.39919757451688653305e+01
  -2.45897400592668482489e+01
  -2.51877919200874309524e+01
  -2.57860944494839046115e+01
  -2.63846154736255478213e+01
  -2.69833269290069885926e+01
  -2.75822043419815017273e+01
  -2.81812263730761571878e+01
  -2.87803744182980381083e+01
  -2.93796322605107675940e+01
  -2.99789857647498294568e+01
  -3.05784226120583397801e+01
  -3.11779320670632742463e+01
  -3.17775047750837913441e+01
  -3.23771325850711448879e+01
  -3.29768083951311012925e+01
  -3.35765260177782920437e+01
  -3.41762800624252420789e+01
  -3.47760658329182277271e+01
  -3.53758792382071760585e+01
  -3.59757167144754888000e+01
  -3.65755751572670533278e+01
  -3.71754518623331122740e+01
  -3.77753444740827930559e+01
  -3.83752509406632285049e+01
  -3.89751694748189834172e+01
  -3.95750985197897193757e+01
  -4.01750367195981681334e+01
  -4.07749828931649389574e+01
  -4.13749360117578675045e+01
  -4.19748951793469089466e+01
  -4.25748596154908511835e+01
  -4.31748286404298653451e+01
  -4.37748016620995272774e+01
  -4.43747781648195243065e+01
  -4.49747576994406301765e+01
  -4.55747398747621446091e+01
  -4.61747243500565787144e+01
  -4.67747108285580850406e+01
  -4.73746990517909409846e+01
  -4.79746887946295004213e+01
  -4.85746798609956087489e+01
  -4.91746720801107812804e+01
  -4.97746653032320480747e+01
  -5.03746594008088095507e+01
  -5.09746542600065168926e+01
  -5.15746497825499545797e+01
  -5.21746458828445653921e+01
  -5.27746424863403191807e+01
  -5.33746395281065844074e+01
  -5.39746369515910942027e+01
  -5.45746347075386779579e+01
  -5.51746327530497495673e+01
  -5.57746310507603624274e+01
  -5.63746295681277302947e+01
  -5.69746282768082679127e+01
  -5.75746271521157382267e+01
  -5.81746261725492956884e+01
  -5.87746253193823591232e+01
  -5.93746245763048818844e+01
  -5.99746239291113809600e+01
</dep>
<dep S[2,2] frequency>
  +1.98227937608597137853e-04+j9.77178426681379235300e-04
  +2.17301205187703239119e-04+j1.04606031950558488186e-03
  +2.38207007664970049632e-04+j1.11974592459634599874e-03
  +2.61121014928589190163e-04+j1.19856382804706183658e-03
  +2.86235677561919032996e-04+j1.28286428849023049874e-03
  +3.13761820928126766717e-04+j1.37302056389188888164e-03
  +3.43930389329449859304e-04+j1.46943030596854095314e-03
  +3.76994354203352699528e-04+j1.57251702370793822877e-03
  +4.13230801509234524360e-04+j1.68273161720065411034e-03
  +4.52943214881762479251e-04+j1.80055398259876958678e-03
  +4.96463972603722325516e-04+j1.92649468856232494555e-03
  +5.44157078044671393968e-04+j2.06109672401010458193e-03
  +5.96421144971159833403e-04+j2.20493731630845091543e-03
  +6.53692661069626979042e-04+j2.35862981825217272319e-03
  +7.16449555003162430467e-04+j2.52282566125085552788e-03
  +7.85215094613711528382e-04+j2.69821637101053026647e-03
  +8.60562146263621485787e-04+j2.88553564070588271576e-03
  +9.43117827878703351985e-04+j3.08556145511693124053e-03
  +1.03356859110326215756e-03+j3.29911825740727970846e-03
  +1.13266577094550680016e-03+j3.52707914816242831119e-03
  +1.24123164457357049173e-03+j3.77036810390168290047e-03
  +1.36016604438438104552e-03+j4.02996219947746037171e-03
  +1.49045357421773161377e-03+j4.30689381558961061069e-03
  +1.63317148157682279219e-03+j4.60225280890202721046e-03
  +1.78949824300933535426e-03+j4.91718861799765073750e-03
  +1.96072292432880601609e-03+j5.25291227349622934228e-03
  +2.14825538222040979264e-03+j5.61069827500706042739e-03
  +2.35363737886351565010e-03+j5.99188629115050917090e-03
  +2.57855468665935116945e-03+j6.39788263143776202158e-03
  +2.82485026576662079378e-03+j6.83016143036108656916e-03
