<Qucs Dataset 0.0.17>
<indep time 11>
  +0.00000000000e+000
  +1.00000000000e-004
  +2.00000000000e-004
  +3.00000000000e-004
  +4.00000000000e-004
  +5.00000000000e-004
  +6.00000000000e-004
  +7.00000000000e-004
  +8.00000000000e-004
  +9.00000000000e-004
  +1.00000000000e-003
</indep>
<dep Vec time>
  +6.46856683315e+000
  +6.46856683315e+000
  +6.46856683315e+000
  +6.46856683315e+000
  +6.46856683315e+000
  +6.46856683315e+000
  +6.46856683315e+000
  +6.46856683315e+000
  +6.46856683315e+000
  +6.46856683315e+000
  +6.46856683315e+000
</dep>
<dep Pr2.Vt time>
  +6.46856683315e+000
  +6.46856683315e+000
  +6.46856683315e+000
  +6.46856683315e+000
  +6.46856683315e+000
  +6.46856683315e+000
  +6.46856683315e+000
  +6.46856683315e+000
  +6.46856683315e+000
  +6.46856683315e+000
  +6.46856683315e+000
</dep>
<dep V1.It time>
  -5.70645529703e-003
  -5.70645529703e-003
  -5.70645529703e-003
  -5.70645529703e-003
  -5.70645529703e-003
  -5.70645529703e-003
  -5.70645529703e-003
  -5.70645529703e-003
  -5.70645529703e-003
  -5.70645529703e-003
  -5.70645529703e-003
</dep>
<dep Pr1.It time>
  +5.70645529703e-003
  +5.70645529703e-003
  +5.70645529703e-003
  +5.70645529703e-003
  +5.70645529703e-003
  +5.70645529703e-003
  +5.70645529703e-003
  +5.70645529703e-003
  +5.70645529703e-003
  +5.70645529703e-003
  +5.70645529703e-003
</dep>
<dep Ve.Vt time>
  +9.29354470297e+000
  +9.29354470297e+000
  +9.29354470297e+000
  +9.29354470297e+000
  +9.29354470297e+000
  +9.29354470297e+000
  +9.29354470297e+000
  +9.29354470297e+000
  +9.29354470297e+000
  +9.29354470297e+000
  +9.29354470297e+000
</dep>
<dep Vc.Vt time>
  +2.82497786982e+000
  +2.82497786982e+000
  +2.82497786982e+000
  +2.82497786982e+000
  +2.82497786982e+000
  +2.82497786982e+000
  +2.82497786982e+000
  +2.82497786982e+000
  +2.82497786982e+000
  +2.82497786982e+000
  +2.82497786982e+000
</dep>
<dep _net2.Vt time>
  +9.29354470297e+000
  +9.29354470297e+000
  +9.29354470297e+000
  +9.29354470297e+000
  +9.29354470297e+000
  +9.29354470297e+000
  +9.29354470297e+000
  +9.29354470297e+000
  +9.29354470297e+000
  +9.29354470297e+000
  +9.29354470297e+000
</dep>
<dep _net1.Vt time>
  +1.50000000000e+001
  +1.50000000000e+001
  +1.50000000000e+001
  +1.50000000000e+001
  +1.50000000000e+001
  +1.50000000000e+001
  +1.50000000000e+001
  +1.50000000000e+001
  +1.50000000000e+001
  +1.50000000000e+001
  +1.50000000000e+001
</dep>
<dep _net0.Vt time>
  +8.47493360935e+000
  +8.47493360935e+000
  +8.47493360935e+000
  +8.47493360935e+000
  +8.47493360935e+000
  +8.47493360935e+000
  +8.47493360935e+000
  +8.47493360935e+000
  +8.47493360935e+000
  +8.47493360935e+000
  +8.47493360935e+000
</dep>
<indep Pr2.V 1>
  +6.46856683315e+000
</indep>
<indep V1.I 1>
  -5.70645529703e-003
</indep>
<indep Pr1.I 1>
  +5.70645529703e-003
</indep>
<indep Ve.V 1>
  +9.29354470297e+000
</indep>
<indep Vc.V 1>
  +2.82497786982e+000
</indep>
<indep _net2.V 1>
  +9.29354470297e+000
</indep>
<indep _net1.V 1>
  +1.50000000000e+001
</indep>
<indep _net0.V 1>
  +8.47493360935e+000
</indep>
