<Qucs Dataset 0.0.17>
<indep time 110>
  +0.00000000000e+000
  +1.83486238532e-005
  +3.66972477064e-005
  +5.50458715596e-005
  +7.33944954128e-005
  +9.17431192661e-005
  +1.10091743119e-004
  +1.28440366972e-004
  +1.46788990826e-004
  +1.65137614679e-004
  +1.83486238532e-004
  +2.01834862385e-004
  +2.20183486239e-004
  +2.38532110092e-004
  +2.56880733945e-004
  +2.75229357798e-004
  +2.93577981651e-004
  +3.11926605505e-004
  +3.30275229358e-004
  +3.48623853211e-004
  +3.66972477064e-004
  +3.85321100917e-004
  +4.03669724771e-004
  +4.22018348624e-004
  +4.40366972477e-004
  +4.58715596330e-004
  +4.77064220183e-004
  +4.95412844037e-004
  +5.13761467890e-004
  +5.32110091743e-004
  +5.50458715596e-004
  +5.68807339450e-004
  +5.87155963303e-004
  +6.05504587156e-004
  +6.23853211009e-004
  +6.42201834862e-004
  +6.60550458716e-004
  +6.78899082569e-004
  +6.97247706422e-004
  +7.15596330275e-004
  +7.33944954128e-004
  +7.52293577982e-004
  +7.70642201835e-004
  +7.88990825688e-004
  +8.07339449541e-004
  +8.25688073394e-004
  +8.44036697248e-004
  +8.62385321101e-004
  +8.80733944954e-004
  +8.99082568807e-004
  +9.17431192661e-004
  +9.35779816514e-004
  +9.54128440367e-004
  +9.72477064220e-004
  +9.90825688073e-004
  +1.00917431193e-003
  +1.02752293578e-003
  +1.04587155963e-003
  +1.06422018349e-003
  +1.08256880734e-003
  +1.10091743119e-003
  +1.11926605505e-003
  +1.13761467890e-003
  +1.15596330275e-003
  +1.17431192661e-003
  +1.19266055046e-003
  +1.21100917431e-003
  +1.22935779817e-003
  +1.24770642202e-003
  +1.26605504587e-003
  +1.28440366972e-003
  +1.30275229358e-003
  +1.32110091743e-003
  +1.33944954128e-003
  +1.35779816514e-003
  +1.37614678899e-003
  +1.39449541284e-003
  +1.41284403670e-003
  +1.43119266055e-003
  +1.44954128440e-003
  +1.46788990826e-003
  +1.48623853211e-003
  +1.50458715596e-003
  +1.52293577982e-003
  +1.54128440367e-003
  +1.55963302752e-003
  +1.57798165138e-003
  +1.59633027523e-003
  +1.61467889908e-003
  +1.63302752294e-003
  +1.65137614679e-003
  +1.66972477064e-003
  +1.68807339450e-003
  +1.70642201835e-003
  +1.72477064220e-003
  +1.74311926606e-003
  +1.76146788991e-003
  +1.77981651376e-003
  +1.79816513761e-003
  +1.81651376147e-003
  +1.83486238532e-003
  +1.85321100917e-003
  +1.87155963303e-003
  +1.88990825688e-003
  +1.90825688073e-003
  +1.92660550459e-003
  +1.94495412844e-003
  +1.96330275229e-003
  +1.98165137615e-003
  +2.00000000000e-003
</indep>
<dep V5.It time>
  -1.00408600773e-003
  -1.00408600355e-003
  -1.00408600000e-003
  -1.00408599704e-003
  -1.00408599458e-003
  -1.00408599256e-003
  -1.00408599091e-003
  -1.00408598961e-003
  -1.00408598861e-003
  -1.00408598789e-003
  -1.00408598742e-003
  -1.00408598719e-003
  -1.00408598717e-003
  -1.00408598737e-003
  -1.00408598776e-003
  -1.00408598833e-003
  -1.00408598908e-003
  -1.00408598999e-003
  -1.00408599106e-003
  -1.00408599227e-003
  -1.00408599362e-003
  -1.00408599509e-003
  -1.00408599667e-003
  -1.00408599834e-003
  -1.00408600011e-003
  -1.00408600194e-003
  -1.00408600383e-003
  -1.00408600576e-003
  -1.00408600771e-003
  -1.00408600967e-003
  -1.00408601161e-003
  -1.00408601354e-003
  -1.00408601542e-003
  -1.00408601725e-003
  -1.00408601901e-003
  -1.00408602070e-003
  -1.00408602229e-003
  -1.00408602378e-003
  -1.00408602516e-003
  -1.00408602643e-003
  -1.00408602758e-003
  -1.00408602861e-003
  -1.00408602951e-003
  -1.00408603028e-003
  -1.00408603092e-003
  -1.00408603143e-003
  -1.00408603182e-003
  -1.00408603208e-003
  -1.00408603222e-003
  -1.00408603224e-003
  -1.00408603215e-003
  -1.00408603194e-003
  -1.00408603162e-003
  -1.00408603120e-003
  -1.00408603069e-003
  -1.00408603007e-003
  -1.00408602937e-003
  -1.00408602859e-003
  -1.00408602772e-003
  -1.00408602678e-003
  -1.00408602577e-003
  -1.00408602470e-003
  -1.00408602356e-003
  -1.00408602237e-003
  -1.00408602113e-003
  -1.00408601985e-003
  -1.00408601852e-003
  -1.00408601716e-003
  -1.00408601577e-003
  -1.00408601435e-003
  -1.00408601291e-003
  -1.00408601145e-003
  -1.00408600998e-003
  -1.00408600851e-003
  -1.00408600703e-003
  -1.00408600556e-003
  -1.00408600409e-003
  -1.00408600263e-003
  -1.00408600119e-003
  -1.00408599977e-003
  -1.00408599838e-003
  -1.00408599701e-003
  -1.00408599568e-003
  -1.00408599440e-003
  -1.00408599315e-003
  -1.00408599196e-003
  -1.00408599082e-003
  -1.00408598974e-003
  -1.00408598873e-003
  -1.00408598778e-003
  -1.00408598691e-003
  -1.00408598612e-003
  -1.00408598542e-003
  -1.00408598480e-003
  -1.00408598428e-003
  -1.00408598385e-003
  -1.00408598353e-003
  -1.00408598332e-003
  -1.00408598322e-003
  -1.00408598323e-003
  -1.00408598337e-003
  -1.00408598362e-003
  -1.00408598401e-003
  -1.00408598452e-003
  -1.00408598516e-003
  -1.00408598592e-003
  -1.00408598682e-003
  -1.00408598784e-003
  -1.00408598899e-003
  -1.00408599026e-003
</dep>
<dep V6.It time>
  -1.00389616980e-003
  -1.00389618098e-003
  -1.00389618862e-003
  -1.00389619489e-003
  -1.00389619998e-003
  -1.00389620401e-003
  -1.00389620713e-003
  -1.00389620943e-003
  -1.00389621102e-003
  -1.00389621198e-003
  -1.00389621237e-003
  -1.00389621226e-003
  -1.00389621170e-003
  -1.00389621074e-003
  -1.00389620942e-003
  -1.00389620778e-003
  -1.00389620585e-003
  -1.00389620366e-003
  -1.00389620124e-003
  -1.00389619862e-003
  -1.00389619582e-003
  -1.00389619286e-003
  -1.00389618976e-003
  -1.00389618654e-003
  -1.00389618323e-003
  -1.00389617984e-003
  -1.00389617639e-003
  -1.00389617290e-003
  -1.00389616938e-003
  -1.00389616585e-003
  -1.00389616233e-003
  -1.00389615884e-003
  -1.00389615539e-003
  -1.00389615199e-003
  -1.00389614866e-003
  -1.00389614541e-003
  -1.00389614227e-003
  -1.00389613924e-003
  -1.00389613633e-003
  -1.00389613357e-003
  -1.00389613095e-003
  -1.00389612850e-003
  -1.00389612623e-003
  -1.00389612414e-003
  -1.00389612224e-003
  -1.00389612056e-003
  -1.00389611908e-003
  -1.00389611783e-003
  -1.00389611682e-003
  -1.00389611604e-003
  -1.00389611550e-003
  -1.00389611521e-003
  -1.00389611518e-003
  -1.00389611540e-003
  -1.00389611588e-003
  -1.00389611663e-003
  -1.00389611763e-003
  -1.00389611890e-003
  -1.00389612042e-003
  -1.00389612220e-003
  -1.00389612423e-003
  -1.00389612650e-003
  -1.00389612901e-003
  -1.00389613175e-003
  -1.00389613470e-003
  -1.00389613785e-003
  -1.00389614119e-003
  -1.00389614469e-003
  -1.00389614835e-003
  -1.00389615214e-003
  -1.00389615603e-003
  -1.00389616002e-003
  -1.00389616406e-003
  -1.00389616814e-003
  -1.00389617224e-003
  -1.00389617632e-003
  -1.00389618036e-003
  -1.00389618434e-003
  -1.00389618824e-003
  -1.00389619202e-003
  -1.00389619567e-003
  -1.00389619917e-003
  -1.00389620250e-003
  -1.00389620564e-003
  -1.00389620857e-003
  -1.00389621129e-003
  -1.00389621379e-003
  -1.00389621604e-003
  -1.00389621804e-003
  -1.00389621980e-003
  -1.00389622129e-003
  -1.00389622252e-003
  -1.00389622349e-003
  -1.00389622419e-003
  -1.00389622462e-003
  -1.00389622480e-003
  -1.00389622471e-003
  -1.00389622437e-003
  -1.00389622377e-003
  -1.00389622293e-003
  -1.00389622185e-003
  -1.00389622053e-003
  -1.00389621899e-003
  -1.00389621723e-003
  -1.00389621527e-003
  -1.00389621311e-003
  -1.00389621077e-003
  -1.00389620825e-003
  -1.00389620557e-003
  -1.00389620273e-003
</dep>
<dep V7.It time>
  +1.11572623732e-008
  -6.88267453003e-005
  -1.37448500581e-004
  -2.05439701564e-004
  -2.72470786218e-004
  -3.38217497440e-004
  -4.02362283281e-004
  -4.64595805665e-004
  -5.24618243687e-004
  -5.82140722430e-004
  -6.36886606473e-004
  -6.88592781872e-004
  -7.37010878958e-004
  -7.81908426943e-004
  -8.23069937905e-004
  -8.60297914058e-004
  -8.93413772779e-004
  -9.22258684342e-004
  -9.46694317838e-004
  -9.66603491281e-004
  -9.81890722428e-004
  -9.92482677374e-004
  -9.98328514528e-004
  -9.99400122106e-004
  -9.95692247829e-004
  -9.87222520053e-004
  -9.74031360115e-004
  -9.56181786195e-004
  -9.33759109560e-004
  -9.06870524548e-004
  -8.75644594223e-004
  -8.40230634074e-004
  -8.00797996692e-004
  -7.57535260791e-004
  -7.10649328434e-004
  -6.60364434745e-004
  -6.06921074838e-004
  -5.50574853057e-004
  -4.91595260039e-004
  -4.30264383414e-004
  -3.66875558319e-004
  -3.01731964156e-004
  -2.35145174304e-004
  -1.67433665721e-004
  -9.89212955495e-005
  -2.99357520086e-005
  +3.91930130121e-005
  +1.08134362175e-004
  +1.76558554180e-004
  +2.44138320957e-004
  +3.10550433016e-004
  +3.75477245478e-004
  +4.38608217386e-004
  +4.99641397038e-004
  +5.58284866230e-004
  +6.14258136509e-004
  +6.67293490756e-004
  +7.17137263679e-004
  +7.63551055099e-004
  +8.06312870219e-004
  +8.45218181432e-004
  +8.80080906571e-004
  +9.10734298946e-004
  +9.37031744893e-004
  +9.58847465025e-004
  +9.76077115838e-004
  +9.88638288785e-004
  +9.96470904432e-004
  +9.99537499823e-004
  +9.97823407659e-004
  +9.91336826452e-004
  +9.80108781313e-004
  +9.64192975556e-004
  +9.43665533836e-004
  +9.18624638045e-004
  +8.89190057710e-004
  +8.55502577134e-004
  +8.17723322033e-004
  +7.76032988872e-004
  +7.30630980603e-004
  +6.81734452924e-004
  +6.29577275631e-004
  +5.74408914036e-004
  +5.16493235777e-004
  +4.56107248757e-004
  +3.93539776229e-004
  +3.29090075371e-004
  +2.63066405951e-004
  +1.95784555948e-004
  +1.27566331148e-004
  +5.87380159714e-005
  -1.03711871258e-005
  -7.94307322087e-005
  -1.48110310844e-004
  -2.16081431945e-004
  -2.83018992929e-004
  -3.48602834660e-004
  -4.12519272758e-004
  -4.74462597933e-004
  -5.34136538179e-004
  -5.91255675832e-004
  -6.45546812710e-004
  -6.96750276808e-004
  -7.44621164305e-004
  -7.88930510926e-004
  -8.29466387076e-004
  -8.66034911491e-004
  -8.98461178571e-004
  -9.26590094941e-004
  -9.50287121268e-004
</dep>
<dep Vin.Vt time>
  +0.00000000000e+000
  +6.91175318771e-002
  +1.37904477891e-001
  +2.06031833356e-001
  +2.73173748375e-001
  +3.39009086366e-001
  +4.03222960043e-001
  +4.65508237508e-001
  +5.25567011245e-001
  +5.83112022999e-001
  +6.37868037720e-001
  +6.89573159997e-001
  +7.37980086694e-001
  +7.82857289785e-001
  +8.23990123746e-001
  +8.61181852190e-001
  +8.94254588853e-001
  +9.23050148410e-001
  +9.47430803070e-001
  +9.67279941325e-001
  +9.82502625691e-001
  +9.93026046793e-001
  +9.98799871610e-001
  +9.99796484214e-001
  +9.96011117852e-001
  +9.87461877753e-001
  +9.74189654524e-001
  +9.56257928576e-001
  +9.33752466503e-001
  +9.06780910855e-001
  +8.75472265300e-001
  +8.39976277597e-001
  +8.00462723366e-001
  +7.57120594054e-001
  +7.10157193002e-001
  +6.59797143919e-001
  +6.06281316523e-001
  +5.49865674466e-001
  +4.90820051077e-001
  +4.29426858762e-001
  +3.65979738234e-001
  +3.00782154049e-001
  +2.34145943148e-001
  +1.66389823352e-001
  +9.78378689566e-002
  +2.88179606937e-002
  -4.03397825027e-002
  -1.09304582441e-001
  -1.77746583767e-001
  -2.45338431649e-001
  -3.11756837497e-001
  -3.76684125241e-001
  -4.39809750754e-001
  -5.00831787178e-001
  -5.59458369017e-001
  -6.15409088123e-001
  -6.68416334873e-001
  -7.18226578128e-001
  -7.64601577869e-001
  -8.07319524680e-001
  -8.46176100656e-001
  -8.80985456645e-001
  -9.11581101155e-001
  -9.37816696676e-001
  -9.59566759604e-001
  -9.76727260424e-001
  -9.89216121278e-001
  -9.96973608538e-001
  -9.99962618514e-001
  -9.98168854913e-001
  -9.91600897220e-001
  -9.80290159665e-001
  -9.64290740966e-001
  -9.43679165581e-001
  -9.18554017694e-001
  -8.89035469689e-001
  -8.55264707377e-001
  -8.17403254705e-001
  -7.75632201198e-001
  -7.30151335814e-001
  -6.81178191368e-001
  -6.28947004076e-001
  -5.73707593220e-001
  -5.15724166270e-001
  -4.55274055197e-001
  -3.92646390002e-001
  -3.28140715824e-001
  -2.62065560232e-001
  -1.94736957547e-001
  -1.26476937269e-001
  -5.76119838246e-002
  +1.15285249948e-002
  +8.06138934282e-002
  +1.49313689449e-001
  +2.17299325205e-001
  +2.84245628638e-001
  +3.49832398767e-001
  +4.13745937196e-001
  +4.75680548512e-001
  +5.35340002422e-001
  +5.92438950598e-001
  +6.46704291490e-001
  +6.97876476558e-001
  +7.45710751677e-001
  +7.89978327788e-001
  +8.30467475184e-001
  +8.66984536200e-001
  +8.99354851473e-001
  +9.27423595326e-001
  +9.51056516295e-001
</dep>
<dep _net2.Vt time>
  +1.11572623732e-005
  +2.90786576794e-004
  +4.55977310286e-004
  +5.92131792290e-004
  +7.02962156457e-004
  +7.91588925366e-004
  +8.60676762608e-004
  +9.12431843182e-004
  +9.48767557460e-004
  +9.71300568493e-004
  +9.81431246569e-004
  +9.80378124606e-004
  +9.69207736232e-004
  +9.48862841792e-004
  +9.20185840363e-004
  +8.83938132265e-004
  +8.40816074438e-004
  +7.91464068200e-004
  +7.36485232481e-004
  +6.76450043638e-004
  +6.11903262583e-004
  +5.43369419275e-004
  +4.71357082536e-004
  +3.96362107475e-004
  +3.18870023384e-004
  +2.39357699962e-004
  +1.58294408977e-004
  +7.61423810690e-005
  -6.64305722914e-006
  -8.96136932413e-005
  -1.72328923479e-004
  -2.54356477191e-004
  -3.35273326236e-004
  -4.14666737230e-004
  -4.92135432098e-004
  -5.67290825979e-004
  -6.39758315230e-004
  -7.09178591688e-004
  -7.75208961904e-004
  -8.37524652580e-004
  -8.95820085396e-004
  -9.49810106292e-004
  -9.99231155865e-004
  -1.04384236897e-003
  -1.08342659292e-003
  -1.11779131495e-003
  -1.14676949057e-003
  -1.17022026576e-003
  -1.18802958668e-003
  -1.20011069169e-003
  -1.20640448139e-003
  -1.20687976336e-003
  -1.20153336886e-003
  -1.19039014011e-003
  -1.17350278712e-003
  -1.15095161415e-003
  -1.12284411651e-003
  -1.08931444934e-003
  -1.05052277052e-003
  -1.00665446065e-003
  -9.57919223942e-004
  -9.04550073903e-004
  -8.46802209021e-004
  -7.84951783566e-004
  -7.19294579530e-004
  -6.50144586033e-004
  -5.77832492968e-004
  -5.02704106084e-004
  -4.25118691033e-004
  -3.45447254189e-004
  -2.64070768426e-004
  -1.81378352140e-004
  -9.77654101443e-005
  -1.36317451167e-005
  +7.06203516116e-005
  +1.54588020177e-004
  +2.37869756307e-004
  +3.20067327546e-004
  +4.00787674736e-004
  +4.79644789010e-004
  +5.56261555510e-004
  +6.30271555201e-004
  +7.01320816265e-004
  +7.69069506739e-004
  +8.33193560363e-004
  +8.93386227888e-004
  +9.49359546348e-004
  +1.00084571923e-003
  +1.04759840082e-003
  +1.08939387846e-003
  +1.12603214682e-003
  +1.15733786901e-003
  +1.18316121955e-003
  +1.20337860511e-003
  +1.21789325934e-003
  +1.22663570873e-003
  +1.22956410722e-003
  +1.22666443779e-003
  +1.21795057999e-003
  +1.20346424310e-003
  +1.18327476528e-003
  +1.15747877965e-003
  +1.12619974911e-003
  +1.08958737217e-003
  +1.04781686286e-003
  +1.00108810836e-003
  +9.49624708509e-004
  +8.93672902086e-004
  +8.33500385078e-004
  +7.69395026863e-004
</dep>
<dep Vout.Vt time>
  +2.11202713443e-004
  -1.21750722872e-002
  -4.72236918230e-002
  -1.01014175465e-001
  -1.70214018749e-001
  -2.51917197943e-001
  -3.43557237436e-001
  -4.42905771342e-001
  -5.47961984786e-001
  -6.56964273479e-001
  -7.68328336445e-001
  -8.80628427088e-001
  -9.92579212163e-001
  -1.10301841339e+000
  -1.21089267396e+000
  -1.31524609891e+000
  -1.41521100584e+000
  -1.51000049596e+000
  -1.59890251726e+000
  -1.68127514354e+000
  -1.75654283631e+000
  -1.82419349380e+000
  -1.88377612191e+000
  -1.93489898803e+000
  -1.97722814093e+000
  -2.01048619838e+000
  -2.03445131999e+000
  -2.04895629625e+000
  -2.05388769629e+000
  -2.04918502630e+000
  -2.03483985944e+000
  -2.01089490465e+000
  -1.97744298866e+000
  -1.93462593016e+000
  -1.88263329035e+000
  -1.82170098773e+000
  -1.75210976886e+000
  -1.67418352970e+000
  -1.58828748510e+000
  -1.49482618621e+000
  -1.39424138817e+000
  -1.28700977167e+000
  -1.17364052450e+000
  -1.05467278998e+000
  -9.30672991024e-001
  -8.02232039451e-001
  -6.69962441445e-001
  -5.34495310771e-001
  -3.96477302282e-001
  -2.56567478868e-001
  -1.15434125566e-001
  +2.62484749765e-002
  +1.67803291167e-001
  +3.08553800440e-001
  +4.47827241603e-001
  +5.84957846489e-001
  +7.19290035932e-001
  +8.50181565107e-001
  +9.77006603525e-001
  +1.09915873519e+000
  +1.21605386481e+000
  +1.32713301627e+000
  +1.43186501026e+000
  +1.52974900821e+000
  +1.62031691066e+000
  +1.70313559848e+000
  +1.77780900649e+000
  +1.84398001945e+000
  +1.90133218155e+000
  +1.94959121114e+000
  +1.98852631360e+000
  +2.01795128605e+000
  +2.03772540860e+000
  +2.04775411799e+000
  +2.04798946038e+000
  +2.03843032106e+000
  +2.01912243014e+000
  +1.99015814411e+000
  +1.95167600428e+000
  +1.90386007440e+000
  +1.84693906040e+000
  +1.78118521665e+000
  +1.70691304389e+000
  +1.62447778508e+000
  +1.53427372635e+000
  +1.43673231126e+000
  +1.33232007722e+000
  +1.22153642416e+000
  +1.10491122598e+000
  +9.83002296165e-001
  +8.56392719888e-001
  +7.25688065139e-001
  +5.91513486364e-001
  +4.54510734405e-001
  +3.15335087058e-001
  +1.74652214935e-001
  +3.31349976070e-002
  -1.08539694727e-001
  -2.49694238668e-001
  -3.89653498647e-001
  -5.27748056060e-001
  -6.63317411059e-001
  -7.95713141694e-001
  -9.24302005284e-001
  -1.04846896719e+000
  -1.16762014249e+000
  -1.28118563654e+000
  -1.38862227074e+000
  -1.48941618052e+000
  -1.58308527318e+000
</dep>
<dep _net1.Vt time>
  +9.00000000000e+000
  +9.00000000000e+000
  +9.00000000000e+000
  +9.00000000000e+000
  +9.00000000000e+000
  +9.00000000000e+000
  +9.00000000000e+000
  +9.00000000000e+000
  +9.00000000000e+000
  +9.00000000000e+000
  +9.00000000000e+000
  +9.00000000000e+000
  +9.00000000000e+000
  +9.00000000000e+000
  +9.00000000000e+000
  +9.00000000000e+000
  +9.00000000000e+000
  +9.00000000000e+000
  +9.00000000000e+000
  +9.00000000000e+000
  +9.00000000000e+000
  +9.00000000000e+000
  +9.00000000000e+000
  +9.00000000000e+000
  +9.00000000000e+000
  +9.00000000000e+000
  +9.00000000000e+000
  +9.00000000000e+000
  +9.00000000000e+000
  +9.00000000000e+000
  +9.00000000000e+000
  +9.00000000000e+000
  +9.00000000000e+000
  +9.00000000000e+000
  +9.00000000000e+000
  +9.00000000000e+000
  +9.00000000000e+000
  +9.00000000000e+000
  +9.00000000000e+000
  +9.00000000000e+000
  +9.00000000000e+000
  +9.00000000000e+000
  +9.00000000000e+000
  +9.00000000000e+000
  +9.00000000000e+000
  +9.00000000000e+000
  +9.00000000000e+000
  +9.00000000000e+000
  +9.00000000000e+000
  +9.00000000000e+000
  +9.00000000000e+000
  +9.00000000000e+000
  +9.00000000000e+000
  +9.00000000000e+000
  +9.00000000000e+000
  +9.00000000000e+000
  +9.00000000000e+000
  +9.00000000000e+000
  +9.00000000000e+000
  +9.00000000000e+000
  +9.00000000000e+000
  +9.00000000000e+000
  +9.00000000000e+000
  +9.00000000000e+000
  +9.00000000000e+000
  +9.00000000000e+000
  +9.00000000000e+000
  +9.00000000000e+000
  +9.00000000000e+000
  +9.00000000000e+000
  +9.00000000000e+000
  +9.00000000000e+000
  +9.00000000000e+000
  +9.00000000000e+000
  +9.00000000000e+000
  +9.00000000000e+000
  +9.00000000000e+000
  +9.00000000000e+000
  +9.00000000000e+000
  +9.00000000000e+000
  +9.00000000000e+000
  +9.00000000000e+000
  +9.00000000000e+000
  +9.00000000000e+000
  +9.00000000000e+000
  +9.00000000000e+000
  +9.00000000000e+000
  +9.00000000000e+000
  +9.00000000000e+000
