<Qucs Dataset 0.0.20>
<indep time 201>
  +0.00000000000000000000e+00
  +1.00000000000000002082e-02
  +2.00000000000000004163e-02
  +2.99999999999999988898e-02
  +4.00000000000000008327e-02
  +5.00000000000000027756e-02
  +5.99999999999999977796e-02
  +7.00000000000000066613e-02
  +8.00000000000000016653e-02
  +8.99999999999999966693e-02
  +1.00000000000000005551e-01
  +1.10000000000000000555e-01
  +1.19999999999999995559e-01
  +1.30000000000000004441e-01
  +1.40000000000000013323e-01
  +1.49999999999999994449e-01
  +1.60000000000000003331e-01
  +1.70000000000000012212e-01
  +1.79999999999999993339e-01
  +1.90000000000000002220e-01
  +2.00000000000000011102e-01
  +2.09999999999999992228e-01
  +2.20000000000000001110e-01
  +2.30000000000000009992e-01
  +2.39999999999999991118e-01
  +2.50000000000000000000e-01
  +2.60000000000000008882e-01
  +2.70000000000000017764e-01
  +2.80000000000000026645e-01
  +2.89999999999999980016e-01
  +2.99999999999999988898e-01
  +3.09999999999999997780e-01
  +3.20000000000000006661e-01
  +3.30000000000000015543e-01
  +3.40000000000000024425e-01
  +3.50000000000000033307e-01
  +3.59999999999999986677e-01
  +3.69999999999999995559e-01
  +3.80000000000000004441e-01
  +3.90000000000000013323e-01
  +4.00000000000000022204e-01
  +4.10000000000000031086e-01
  +4.19999999999999984457e-01
  +4.29999999999999993339e-01
  +4.40000000000000002220e-01
  +4.50000000000000011102e-01
  +4.60000000000000019984e-01
  +4.70000000000000028866e-01
  +4.79999999999999982236e-01
  +4.89999999999999991118e-01
  +5.00000000000000000000e-01
  +5.10000000000000008882e-01
  +5.20000000000000017764e-01
  +5.30000000000000026645e-01
  +5.40000000000000035527e-01
  +5.50000000000000044409e-01
  +5.60000000000000053291e-01
  +5.70000000000000062172e-01
  +5.79999999999999960032e-01
  +5.89999999999999968914e-01
  +5.99999999999999977796e-01
  +6.09999999999999986677e-01
  +6.19999999999999995559e-01
  +6.30000000000000004441e-01
  +6.40000000000000013323e-01
  +6.50000000000000022204e-01
  +6.60000000000000031086e-01
  +6.70000000000000039968e-01
  +6.80000000000000048850e-01
  +6.90000000000000057732e-01
  +7.00000000000000066613e-01
  +7.09999999999999964473e-01
  +7.19999999999999973355e-01
  +7.29999999999999982236e-01
  +7.39999999999999991118e-01
  +7.50000000000000000000e-01
  +7.60000000000000008882e-01
  +7.70000000000000017764e-01
  +7.80000000000000026645e-01
  +7.90000000000000035527e-01
  +8.00000000000000044409e-01
  +8.10000000000000053291e-01
  +8.20000000000000062172e-01
  +8.30000000000000071054e-01
  +8.39999999999999968914e-01
  +8.49999999999999977796e-01
  +8.59999999999999986677e-01
  +8.69999999999999995559e-01
  +8.80000000000000004441e-01
  +8.90000000000000013323e-01
  +9.00000000000000022204e-01
  +9.10000000000000031086e-01
  +9.20000000000000039968e-01
  +9.30000000000000048850e-01
  +9.40000000000000057732e-01
  +9.50000000000000066613e-01
  +9.59999999999999964473e-01
  +9.69999999999999973355e-01
  +9.79999999999999982236e-01
  +9.89999999999999991118e-01
  +1.00000000000000000000e+00
  +1.01000000000000000888e+00
  +1.02000000000000001776e+00
  +1.03000000000000002665e+00
  +1.04000000000000003553e+00
  +1.05000000000000004441e+00
  +1.06000000000000005329e+00
  +1.07000000000000006217e+00
  +1.08000000000000007105e+00
  +1.09000000000000007994e+00
  +1.10000000000000008882e+00
  +1.11000000000000009770e+00
  +1.12000000000000010658e+00
  +1.13000000000000011546e+00
  +1.14000000000000012434e+00
  +1.15000000000000013323e+00
  +1.15999999999999992006e+00
  +1.16999999999999992895e+00
  +1.17999999999999993783e+00
  +1.18999999999999994671e+00
  +1.19999999999999995559e+00
  +1.20999999999999996447e+00
  +1.21999999999999997335e+00
  +1.22999999999999998224e+00
  +1.23999999999999999112e+00
  +1.25000000000000000000e+00
  +1.26000000000000000888e+00
  +1.27000000000000001776e+00
  +1.28000000000000002665e+00
  +1.29000000000000003553e+00
  +1.30000000000000004441e+00
  +1.31000000000000005329e+00
  +1.32000000000000006217e+00
  +1.33000000000000007105e+00
  +1.34000000000000007994e+00
  +1.35000000000000008882e+00
  +1.36000000000000009770e+00
  +1.37000000000000010658e+00
  +1.38000000000000011546e+00
  +1.39000000000000012434e+00
  +1.40000000000000013323e+00
  +1.40999999999999992006e+00
  +1.41999999999999992895e+00
  +1.42999999999999993783e+00
  +1.43999999999999994671e+00
  +1.44999999999999995559e+00
  +1.45999999999999996447e+00
  +1.46999999999999997335e+00
  +1.47999999999999998224e+00
  +1.48999999999999999112e+00
  +1.50000000000000000000e+00
  +1.51000000000000000888e+00
  +1.52000000000000001776e+00
  +1.53000000000000002665e+00
  +1.54000000000000003553e+00
  +1.55000000000000004441e+00
  +1.56000000000000005329e+00
  +1.57000000000000006217e+00
  +1.58000000000000007105e+00
  +1.59000000000000007994e+00
  +1.60000000000000008882e+00
  +1.61000000000000009770e+00
  +1.62000000000000010658e+00
  +1.63000000000000011546e+00
  +1.64000000000000012434e+00
  +1.65000000000000013323e+00
  +1.66000000000000014211e+00
  +1.66999999999999992895e+00
  +1.67999999999999993783e+00
  +1.68999999999999994671e+00
  +1.69999999999999995559e+00
  +1.70999999999999996447e+00
  +1.71999999999999997335e+00
  +1.72999999999999998224e+00
  +1.73999999999999999112e+00
  +1.75000000000000000000e+00
  +1.76000000000000000888e+00
  +1.77000000000000001776e+00
  +1.78000000000000002665e+00
  +1.79000000000000003553e+00
  +1.80000000000000004441e+00
  +1.81000000000000005329e+00
  +1.82000000000000006217e+00
  +1.83000000000000007105e+00
  +1.84000000000000007994e+00
  +1.85000000000000008882e+00
  +1.86000000000000009770e+00
  +1.87000000000000010658e+00
  +1.88000000000000011546e+00
  +1.89000000000000012434e+00
  +1.90000000000000013323e+00
  +1.91000000000000014211e+00
  +1.91999999999999992895e+00
  +1.92999999999999993783e+00
  +1.93999999999999994671e+00
  +1.94999999999999995559e+00
  +1.95999999999999996447e+00
  +1.96999999999999997335e+00
  +1.97999999999999998224e+00
  +1.98999999999999999112e+00
  +2.00000000000000000000e+00
</indep>
<dep Vs.Vt time>
  +2.43354177455885258704e-20
  +5.55450853150935286440e-02
  +1.60525718098754044405e-01
  +1.63102831799110725708e-01
  +2.67552960694679820008e-01
  +3.16521549500356047524e-01
  +3.67936415893677315481e-01
  +4.68281824342643870906e-01
  +4.66308078191528085910e-01
  +5.66556981032188655689e-01
  +6.11097527333009260531e-01
  +6.58439204515902432036e-01
  +7.54474428240787808875e-01
  +7.48268599136700185426e-01
  +8.44610569549773870790e-01
  +8.85033212611912922796e-01
  +9.28587369892032832297e-01
  +1.02061456333632127880e+00
  +1.01047353464722311500e+00
  +1.10318241455480503532e+00
  +1.13977620358076325857e+00
  +1.17980803257165334230e+00
  +1.26810814096685486874e+00
  +1.25430834089208342874e+00
  +1.34363856855565355630e+00
  +1.37667185506555522778e+00
  +1.41342762105807029371e+00
  +1.49826186048747356239e+00
  +1.48105848829860820004e+00
  +1.56724716782361728207e+00
  +1.59696935582171928303e+00
  +1.63067936386128931048e+00
  +1.71229066724879741557e+00
  +1.69192307821440834914e+00
  +1.77518910492560433312e+00
  +1.80183248552370223194e+00
  +1.83270975764538146535e+00
  +1.91132580752856195971e+00
  +1.88809692460732225783e+00
  +1.96859049213193948447e+00
  +1.99242649736012467088e+00
  +2.02089251324992336123e+00
  +2.10557612484574452338e+00
  +2.07360871125638901447e+00
  +2.19492161289052134521e+00
  +2.24120031904405880852e+00
  +2.30091987613689230585e+00
  +2.49712634886090434350e+00
  +2.40942859249475649364e+00
  +2.61591316780987792612e+00
  +2.65998251634437021806e+00
  +2.71467038052238063273e+00
  +2.91408515326496697639e+00
  +2.80222456383735352148e+00
  +3.00463594179417192720e+00
  +3.03378904492696399586e+00
  +3.07444947882754870960e+00
  +3.26304073634577562757e+00
  +3.13405520251253477682e+00
  +3.32569668144550334432e+00
  +3.34128199853438800915e+00
  +3.36928814634291118324e+00
  +3.54687746334581888163e+00
  +3.40455051388556917402e+00
  +3.58592829275616598039e+00
  +3.59020811814472562418e+00
  +3.60768549383413450471e+00
  +3.77574709672699437846e+00
  +3.62284296751080692189e+00
  +3.79545440095854935691e+00
  +3.79052257579547990929e+00
  +3.79940871227092102913e+00
  +3.95956186414066912960e+00
  +3.79824016458072133418e+00
  +3.96361016086088469024e+00
  +3.95123908061273176884e+00
  +3.95318727643629763691e+00
  +4.10688536836283901721e+00
  +3.93885220798714819068e+00
  +4.09832469764877682650e+00
  +4.07997066306130928837e+00
  +4.07634552558586893412e+00
  +4.22481854255810240772e+00
  +4.05143455268319296891e+00
  +4.20613652750457678309e+00
  +4.18298317276800002418e+00
  +4.17488277406911301171e+00
  +4.31914554402576023051e+00
  +4.14148647907805056434e+00
  +4.29234900384835960097e+00
  +4.26535119459076028647e+00
  +4.25365796126519235543e+00
  +4.39453850221147135358e+00
  +4.21346106928813668446e+00
  +4.36125115590234457841e+00
  +4.33117690330006688271e+00
  +4.31662175490730781746e+00
  +4.45478990484566761410e+00
  +4.27099254224068491936e+00
  +4.41629290482979541821e+00
  +4.38375951186009160665e+00
  +4.36691162103375152270e+00
  +4.50290760900393838284e+00
  +4.31693781107193963464e+00
  +4.46026146377133336784e+00
  +4.42576204232964975915e+00
  +4.40707752194101853860e+00
  +4.54133545148927098012e+00
  +4.35363677377755831088e+00
  +4.49537356384331143744e+00
  +4.45930391662619296511e+00
  +4.43915383412579256373e+00
  +4.57202156807133519578e+00
  +4.38293775913997230020e+00
  +4.52340493346931893370e+00
  +4.48608101366834866042e+00
  +4.46475475655476117254e+00
  +4.59651166977664793478e+00
  +4.40632089513201830044e+00
  +4.54577745274824085442e+00
  +4.50745145066717078919e+00
  +4.48519850110738715898e+00
  +4.61606791818413597639e+00
  +4.42499541533633422574e+00
  +4.56364164015493400939e+00
  +4.52451604379511707066e+00
  +4.50151497550304657835e+00
  +4.63167541678564376184e+00
  +4.43990523432768924295e+00
  +4.57790732992763516052e+00
  +4.53814302755784737542e+00
  +4.51454900914008838697e+00
  +4.64414311612954744390e+00
  +4.45180488366107596221e+00
  +4.58929177093112894426e+00
  +4.54901728083991141460e+00
  +4.52495382754332275965e+00
  +4.65409498404566157603e+00
  +4.46130704872474925793e+00
  +4.59838003184021637537e+00
  +4.55769882225596401071e+00
  +4.53324763747917991452e+00
  +4.66202844465807508811e+00
  +4.46888346992828200399e+00
  +4.60562600992267512368e+00
  +4.56462016168235162894e+00
  +4.53986243246732890100e+00
  +4.66835519534390197549e+00
  +4.47492815751914108091e+00
  +4.61140817084656262637e+00
  +4.57014335396765947195e+00
  +4.54514348194919026724e+00
  +4.67340648991601526063e+00
  +4.47974999687425867734e+00
  +4.61602218106961181832e+00
  +4.57455067067817644499e+00
  +4.54935936170012400481e+00
  +4.67743874140148108154e+00
  +4.48360095683042558790e+00
  +4.61970641218211053314e+00
  +4.57807006542848249353e+00
  +4.55272324212791534848e+00
  +4.68065621087588912275e+00
  +4.48667524326258249090e+00
  +4.62265256005461289135e+00
  +4.58088374421916277868e+00
  +4.55541979447180267471e+00
  +4.68323545679162211997e+00
  +4.48913707216187507498e+00
  +4.62500065034537399811e+00
  +4.58312686890192200195e+00
  +4.55756310755032778559e+00
  +4.68528522509340117352e+00
  +4.49109139935628398632e+00
  +4.62686987073298539030e+00
  +4.58491246238912886213e+00
  +4.55926562675741475772e+00
  +4.68691377930446151368e+00
  +4.49265024664940071375e+00
  +4.62836376952464867429e+00
  +4.58633911179879660835e+00
  +4.56063249567910133919e+00
  +4.68822105939085709281e+00
  +4.49390269178275936213e+00
  +4.62955778677852070047e+00
  +4.58747988052926114477e+00
  +4.56172619210367447096e+00
  +4.68926703227742702751e+00
  +4.49489816706521949641e+00
  +4.63051407677575888044e+00
  +4.58839346804264458513e+00
  +4.56259441633940543426e+00
  +4.69009742181518607396e+00
  +4.49569903507033075130e+00
  +4.63127728360009616182e+00
  +4.58912234441162869558e+00
  +4.56329179762715764213e+00
  +4.69076456936253993746e+00
  +4.49632916479213395888e+00
  +4.63187976877018847688e+00
  +4.58969783496978855908e+00
</dep>
<dep IZ.It time>
  -1.61999485760576072241e-14
  +4.80346287454460017219e-11
  +2.60877804578423550298e-09
  +2.20146638270209533349e-09
  -5.02023937711467550853e-11
  +7.05227575140095554127e-09
  -9.09125135287554536374e-11
  +2.09491293863643372931e-09
  +1.75375829833304022144e-09
  -1.61609565357578157961e-10
  +6.11654023199705765003e-09
  -1.92353100254133736256e-10
  +1.78484587926182148175e-09
  +1.48306471865894788697e-09
  -2.49816540152686492998e-10
  +5.51901863761202632531e-09
  -2.76369977162880215997e-10
  +1.56845937794074266270e-09
  +1.28868154839532008825e-09
  -3.26468965961141738908e-10
  +5.09974587637952862746e-09
  -3.46118435454770353172e-10
  +1.40055548824611192800e-09
  +1.13690027589730728689e-09
  -3.89908844798145673908e-10
  +4.77119547298387301965e-09
  -4.06145766886149426335e-10
  +1.26537999796358124283e-09
  +1.01338438971754282542e-09
  -4.42887113043366173836e-10
  +4.51160305989943551259e-09
  -4.62593129942511812893e-10
  +1.15279958361348016947e-09
  +8.34180487659366331487e-10
  -4.71286468061544342850e-10
  +4.37665790202607325215e-09
  -2.06387185413586992230e-10
  +1.31902160146120499199e-08
  +3.54987479780738877802e-09
  +1.78286986016264186450e-07
  +5.50411478340106893952e-07
  +2.05008473159879369682e-06
  +6.01952363504269029370e-05
  +2.02487397451625560638e-05
  +3.08244583859734213021e-04
  +4.76407744052045325697e-04
  +7.09247537883447290094e-04
  +1.52649845851825943267e-03
  +1.15505145019569282865e-03
  +2.03818513687898349163e-03
  +2.22970368503266989230e-03
  +2.46831381154588276952e-03
  +3.34484410610012784446e-03
  +2.85208742792836386290e-03
  +3.74526887007943032684e-03
  +3.87442838894970368116e-03
  +4.05474358105409327102e-03
  +4.89330495108972630264e-03
  +4.31940841704253966626e-03
  +5.17257304295405152816e-03
  +5.24208359814805346932e-03
  +5.36703273222277361248e-03
  +6.16045646477562588994e-03
  +5.52442835698511210824e-03
  +6.33515315500645954244e-03
  +6.35430373937710506194e-03
  +6.43251722462548358727e-03
  +7.18528769412467120670e-03
  +6.50036026650193873855e-03
  +7.27363251287579080928e-03
  +7.25152256724250626752e-03
  +7.29136078920988254387e-03
  +8.00981793860437892019e-03
  +7.28612180642842621053e-03
  +8.02798942923407463090e-03
  +7.97246120938545528578e-03
  +7.98120547742162643468e-03
  +8.67140524934410447666e-03
  +7.91686674020500302795e-03
  +8.63294565727693204160e-03
  +8.55049490370121852145e-03
  +8.53421095404160827413e-03
  +9.20141529384500486688e-03
  +8.42232150918765208603e-03
  +9.11743327807694979581e-03
  +9.01336234441899378234e-03
  +8.97695523249844237745e-03
  +9.62556607580809971136e-03
  +8.82687287246899932036e-03
  +9.50505313012566140085e-03
  +9.38365056374180703247e-03
  +9.33107388607088035493e-03
  +9.96471255862351260046e-03
  +9.15035862729780304081e-03
  +9.81495916355964830025e-03
  +9.67967999846895688076e-03
  +9.61421511141506181242e-03
  +1.02358266284750792224e-02
  +9.40901701798738630822e-03
  +1.00625931695673791200e-02
  +9.91621754886648845706e-03
  +9.84042295841847276805e-03
  +1.04523909544186038162e-02
  +9.61563659455690229738e-03
  +1.02604504581710331834e-02
  +1.01052009481075889125e-02
  +1.00211288461575023789e-02
  +1.06253735348109442510e-02
  +9.78070662315019996591e-03
  +1.04184795663865275434e-02
  +1.02561411399389058180e-02
  +1.01654621855457750340e-02
  +1.07635250765841881254e-02
  +9.91252055007186411162e-03
  +1.05446562628670054140e-02
  +1.03766543951150386899e-02
  +1.02806721786096559590e-02
  +1.08737929670220476869e-02
  +1.00177245004025791686e-02
  +1.06453708146638549581e-02
  +1.04728436664885717067e-02
  +1.03726823419323533476e-02
  +1.09618530228873505700e-02
  +1.01017513322136757992e-02
  +1.07257963352260527606e-02
  +1.05496579538339931709e-02
  +1.04461225142449456310e-02
  +1.10321366482225916017e-02
  +1.01688434841386322882e-02
  +1.07900250992662444932e-02
  +1.06110018905177135029e-02
  +1.05047918802734820132e-02
  +1.10882839379770822830e-02
  +1.02223932758659617759e-02
  +1.08412839832325736539e-02
  +1.06599562908004045353e-02
  +1.05516286523647546264e-02
  +1.11331031455965158428e-02
  +1.02651560001265265004e-02
  +1.08822057658165150668e-02
  +1.06990408530447493607e-02
  +1.05889641770852763192e-02
  +1.11688333719043107056e-02
  +1.02992534638604339714e-02
  +1.09148332582102609856e-02
  +1.07302018487212130760e-02
  +1.06187422796280173803e-02
  +1.11973281010474701863e-02
  +1.03264581577987690081e-02
  +1.09408700278891615754e-02
  +1.07550687382310557194e-02
  +1.06425167443943632928e-02
  +1.12200788141359961148e-02
  +1.03481597830197939725e-02
  +1.09616470650344480231e-02
  +1.07749120247185338484e-02
  +1.06614963235522972745e-02
  +1.12382401040487349408e-02
  +1.03654920793049415417e-02
  +1.09782375239572613235e-02
  +1.07907578082465215735e-02
  +1.06766404824411523938e-02
  +1.12527317893877966404e-02
  +1.03793289366153236586e-02
  +1.09915044781218832620e-02
  +1.08034263126772379221e-02
  +1.06887804755607315754e-02
  +1.12643489903530916174e-02
  +1.03904093460581749275e-02
  +1.10020783875389664003e-02
  +1.08135260086888243536e-02
  +1.06984298501548603239e-02
  +1.12735814398938084119e-02
  +1.03992056260865817913e-02
  +1.10104959154678216926e-02
  +1.08215657246904049110e-02
  +1.07060947894282339210e-02
  +1.12809167267415577651e-02
  +1.04062219298766498593e-02
  +1.10172233244624582366e-02
  +1.08279893166379100056e-02
  +1.07122486276488258772e-02
  +1.12868049692746962032e-02
  +1.04118591624216896840e-02
  +1.10226003157461362875e-02
  +1.08331257344363631606e-02
  +1.07171726272111741268e-02
  +1.12915162523831071745e-02
  +1.04163397984062319063e-02
  +1.10269067716140568847e-02
  +1.08372392631098605348e-02
  +1.07210815286239297128e-02
  +1.12952565143698800687e-02
  +1.04199445195557096472e-02
  +1.10303437274997598316e-02
  +1.08405211193516575613e-02
  +1.07242212736300759901e-02
  +1.12982615051749196722e-02
  +1.04227807527094255835e-02
  +1.10330569107385291494e-02
  +1.08431123431599676921e-02
</dep>
<dep IR.It time>
  +1.61999486866731506355e-14
  +2.52477612488523578491e-04
  +7.29659746216290597091e-04
  +7.41374306711393526829e-04
  +1.21614987154184794188e-03
  +1.43872726363495793619e-03
  +1.67243834497468298397e-03
  +2.12855165209907895574e-03
  +2.11958041983955573079e-03
  +2.57525916630133152804e-03
  +2.77770991679162759097e-03
  +2.99290566742538288736e-03
  +3.42942743443042834597e-03
  +3.40121942210210113228e-03
  +3.83913920231551079182e-03
  +4.02287272012641968638e-03
  +4.22085195769739823790e-03
  +4.63915553761480841527e-03
  +4.59306023244219086693e-03
  +5.01446584717262465458e-03
  +5.18079582562122869377e-03
  +5.36276413053504100864e-03
  +5.76412651293021528753e-03
  +5.70140041260919390453e-03
  +6.10744842879817635001e-03
  +6.25759457001159608708e-03
  +6.42467141095517772775e-03
  +6.81027991865397214905e-03
  +6.73208302433655689234e-03
  +7.12385120572173527465e-03
  +7.25894710576839314459e-03
  +7.41217938923535192564e-03
  +7.78313824378585802921e-03
  +7.69055861224864165809e-03
  +8.06904185731194441289e-03
  +8.19014328481347357591e-03
  +8.33049910477528555985e-03
  +8.68783138945926347585e-03
  +8.58225519834030121935e-03
  +8.94796031361370751422e-03
  +9.05593366743131372720e-03
  +9.18382497549532529624e-03
  +9.51060533113023097440e-03
  +9.40524540232933609074e-03
  +9.66867183836990842782e-03
  +9.71086643342094525677e-03
  +9.74947917182969990557e-03
  +9.82407585448584648458e-03
  +9.79689669750774712320e-03
  +9.85232926225682731358e-03
  +9.86112593471446564897e-03
  +9.87109700901038847332e-03
  +9.90099749964971735661e-03
  +9.88529695315051859517e-03
  +9.91216722898498499295e-03
  +9.91552181526376974485e-03
  +9.92002677725294795819e-03
  +9.93869839593652590337e-03
  +9.92629704892352381085e-03
